# vsim -voptargs="+acc" -work work -c -do "run.do" ahb_apb_top 
# Start time: 15:22:45 on Feb 16,2025
# ** Note: (vsim-3812) Design is being optimized...
# ** Warning: (vopt-10587) Some optimizations are turned off because the +acc switch is in effect. This will cause your simulation to run slowly. Please use -access/-debug to maintain needed visibility. The +acc switch would be deprecated in a future release.
# Support of the MGLS_LICENSE_FILE and LM_LICENSE_FILE licensing environment variables will be discontinued starting with the 2025.1 release. Please update to using the SALT_LICENSE_SERVER variable.
# Please contact Siemens EDA Customer Support (https://support.sw.siemens.com/) for assistance.
# ** Warning: ../TB/test.sv(31): (vopt-2240) Treating stand-alone use of function 'create' as an implicit VOID cast.
# ** Warning: ../TB/environment.sv(40): (vopt-2250) Function "create" has no return value assignment.
# ** Note: (vopt-143) Recognized 1 FSM in module "APB_FSM_Controller(fast)".
# ** Note: (vsim-12126) Error and warning message counts have been restored: Errors=0, Warnings=3.
# //  Questa Sim-64
# //  Version 2024.2 linux_x86_64 May 20 2024
# //
# // Unpublished work. Copyright 2024 Siemens
# //
# // This material contains trade secrets or otherwise confidential information
# // owned by Siemens Industry Software Inc. or its affiliates (collectively,
# // "SISW"), or its licensors. Access to and use of this information is strictly
# // limited as set forth in the Customer's applicable agreements with SISW.
# //
# // This material may not be copied, distributed, or otherwise disclosed outside
# // of the Customer's facilities without the express written permission of SISW,
# // and may not be used in any way not expressly authorized by SISW.
# //
# Loading sv_std.std
# Loading work.top_sv_unit(fast)
# Loading work.ahb_apb_top(fast)
# Loading work.ahb_apb_bfm_if(fast__2)
# Loading work.bridge_top(fast)
# Loading work.AHB_slave_interface(fast)
# Loading work.APB_FSM_Controller(fast)
# Loading work.ahb_apb_bfm_if(fast)
# do run.do
# ** Warning: (vdel-134) Unable to remove locked optimized design "_opt".  Locker is duvvuru@mo.ece.pdx.edu.
# ** Warning: (vlib-34) Library already exists at "work".
# Errors: 0, Warnings: 1
# QuestaSim-64 vlog 2024.2 Compiler 2024.05 May 20 2024
# Start time: 15:22:47 on Feb 16,2025
# vlog AHB_Master.sv 
# -- Compiling module AHB_Master
# 
# Top level modules:
# 	AHB_Master
# End time: 15:22:47 on Feb 16,2025, Elapsed time: 0:00:00
# Errors: 0, Warnings: 0
# QuestaSim-64 vlog 2024.2 Compiler 2024.05 May 20 2024
# Start time: 15:22:47 on Feb 16,2025
# vlog AHB_Slave_Interface.sv 
# -- Compiling module AHB_slave_interface
# 
# Top level modules:
# 	AHB_slave_interface
# End time: 15:22:47 on Feb 16,2025, Elapsed time: 0:00:00
# Errors: 0, Warnings: 0
# QuestaSim-64 vlog 2024.2 Compiler 2024.05 May 20 2024
# Start time: 15:22:47 on Feb 16,2025
# vlog APB_Controller.sv 
# -- Compiling module APB_FSM_Controller
# 
# Top level modules:
# 	APB_FSM_Controller
# End time: 15:22:47 on Feb 16,2025, Elapsed time: 0:00:00
# Errors: 0, Warnings: 0
# QuestaSim-64 vlog 2024.2 Compiler 2024.05 May 20 2024
# Start time: 15:22:47 on Feb 16,2025
# vlog APB_Interface.sv 
# -- Compiling module APB_Interface
# 
# Top level modules:
# 	APB_Interface
# End time: 15:22:47 on Feb 16,2025, Elapsed time: 0:00:00
# Errors: 0, Warnings: 0
# QuestaSim-64 vlog 2024.2 Compiler 2024.05 May 20 2024
# Start time: 15:22:48 on Feb 16,2025
# vlog bridge_top.sv 
# -- Compiling module bridge_top
# 
# Top level modules:
# 	bridge_top
# End time: 15:22:48 on Feb 16,2025, Elapsed time: 0:00:00
# Errors: 0, Warnings: 0
# QuestaSim-64 vlog 2024.2 Compiler 2024.05 May 20 2024
# Start time: 15:22:48 on Feb 16,2025
# vlog ../TB/top.sv 
# -- Compiling package top_sv_unit
# ** Warning: ../TB/test.sv(31): (vlog-2240) Treating stand-alone use of function 'create' as an implicit VOID cast.
# -- Compiling interface ahb_apb_bfm_if
# -- Compiling module bridge_top
# -- Compiling module ahb_apb_top
# 
# Top level modules:
# 	ahb_apb_top
# End time: 15:22:48 on Feb 16,2025, Elapsed time: 0:00:00
# Errors: 0, Warnings: 1
# QuestaSim-64 vopt 2024.2 Compiler 2024.05 May 20 2024
# ** Warning: (vopt-10587) Some optimizations are turned off because the +acc switch is in effect. This will cause your simulation to run slowly. Please use -access/-debug to maintain needed visibility. The +acc switch would be deprecated in a future release.
# Start time: 15:22:48 on Feb 16,2025
# vopt ahb_apb_top -o top_optimized "+acc" "+cover=sbfec+bridge_top(rtl)." 
# 
# Top level modules:
# 	ahb_apb_top
# Support of the MGLS_LICENSE_FILE and LM_LICENSE_FILE licensing environment variables will be discontinued starting with the 2025.1 release. Please update to using the SALT_LICENSE_SERVER variable.
# Please contact Siemens EDA Customer Support (https://support.sw.siemens.com/) for assistance.
# 
# Analyzing design...
# -- Loading module ahb_apb_top
# -- Loading interface ahb_apb_bfm_if
# -- Loading module bridge_top
# -- Loading module AHB_slave_interface
# -- Loading module APB_FSM_Controller
# Optimizing 7 design-units (inlining 0/5 module instances):
# -- Optimizing package top_sv_unit(fast)
# ** Warning: ../TB/test.sv(31): (vopt-2240) Treating stand-alone use of function 'create' as an implicit VOID cast.
# ** Warning: ../TB/environment.sv(40): (vopt-2250) Function "create" has no return value assignment.
# -- Optimizing interface ahb_apb_bfm_if(fast__2)
# -- Optimizing module APB_FSM_Controller(fast)
# ** Note: (vopt-143) Recognized 1 FSM in module "APB_FSM_Controller(fast)".
# -- Optimizing module AHB_slave_interface(fast)
# -- Optimizing module ahb_apb_top(fast)
# -- Optimizing module bridge_top(fast)
# -- Optimizing interface ahb_apb_bfm_if(fast)
# Optimized design name is top_optimized
# End time: 15:22:49 on Feb 16,2025, Elapsed time: 0:00:01
# Errors: 0, Warnings: 3
# End time: 15:22:49 on Feb 16,2025, Elapsed time: 0:00:04
# Errors: 0, Warnings: 3
# vsim top_optimized -coverage 
# Start time: 15:22:49 on Feb 16,2025
# Loading sv_std.std
# Loading work.top_sv_unit(fast)
# Loading work.ahb_apb_top(fast)
# Loading work.ahb_apb_bfm_if(fast__2)
# Loading work.bridge_top(fast)
# Loading work.AHB_slave_interface(fast)
# Loading work.APB_FSM_Controller(fast)
# Loading work.ahb_apb_bfm_if(fast)
# 1
# in top
# in test
# in test repeat
#                    0   write_single_halfword_nonseq_single_Htransfer_okay task in generator
# driver tx131082
# Scoreboard check...
# Input Address: 48d91
# Input Write Data: 61ca2891
# Data Stored: 61ca2891
# 
#                    5   read_single_word_nonseq_single_Htransfer_okay task in generator
# Scoreboard read
#                   10   write_single_byte_nonseq_single_Htransfer_error task in generator
# Scoreboard check...
# Temp address = d898d
# Read data from DUT 00000000
# Data from TB memory 00000000
# 
# Input Address: d898d
# Input Write Data: 17868ba7
# Data Stored: 17868ba7
# 
#                   15   read_incr_halfword_nonseq_incr_Hburst_okay task in generator
# Scoreboard read
# Temp address = cc359
# Read data from DUT 00000000
# Data from TB memory 00000000
# 
#                   20   write_incr_word_nonseq_incr_Hburst_okay task in generator
# Scoreboard check...
# Input Address: 0a771
# Input Write Data: 37b1e4c7
# Data Stored: 37b1e4c7
# 
#                   25   read_wrap4_byte_nonseq_wrap4_Hburst_okay task in generator
# Scoreboard read
# Temp address = b2e0b
# Read data from DUT 00000000
# Data from TB memory 00000000
# 
#                   30   write_wrap4_halfword_nonseq_wrap4_Hburst_okay task in generator
# Scoreboard check...
# Input Address: 1948c
# Input Write Data: 45c64cd7
# Data Stored: 45c64cd7
# 
#                   35   read_wrap4_word_nonseq_wrap4_Hburst_okay task in generator
# Scoreboard read
# Temp address = 430de
# Read data from DUT 00000000
# Data from TB memory 00000000
# 
#                   40   write_incr4_byte_nonseq_incr4_Hburst_okay task in generator
# Scoreboard check...
# Input Address: 8a0aa
# Input Write Data: b4ba5c1f
# Data Stored: b4ba5c1f
# 
#                   45   read_incr4_halfword_nonseq_incr4_Hburst_okay task in generator
# Scoreboard read
# Temp address = 3b59a
# Read data from DUT 00000000
# Data from TB memory 00000000
# 
#                   50   write_incr4_word_nonseq_incr4_Hburst_okay task in generator
# Scoreboard check...
# Input Address: c4bcc
# Input Write Data: 923eeffc
# Data Stored: 923eeffc
# 
#                   55   read_wrap8_byte_nonseq_wrap8_Hburst_okay task in generator
# Scoreboard read
# Temp address = 62344
# Read data from DUT 00000000
# Data from TB memory 00000000
# 
#                   60   write_wrap8_halfword_nonseq_wrap8_Hburst_okay task in generator
# Scoreboard check...
# Input Address: 4beb9
# Input Write Data: bb908c41
# Data Stored: bb908c41
# 
#                   65   read_wrap8_word_nonseq_wrap8_Hburst_okay task in generator
# Scoreboard read
# Temp address = 2bd4d
# Read data from DUT 00000000
# Data from TB memory 00000000
# 
# in env
#                   70   write_incr8_byte_nonseq_incr8_Hburst_okay task in generator
# Scoreboard check...
# Input Address: 24e93
# Input Write Data: 7853a845
# Data Stored: 7853a845
# 
#                   75   read_incr8_halfword_nonseq_incr8_Hburst_okay task in generator
# Scoreboard read
# Temp address = 8ed42
# Read data from DUT 00000000
# Data from TB memory 00000000
# 
#                   80   write_incr8_word_nonseq_incr8_Hburst_okay task in generator
# Scoreboard check...
# Input Address: f6289
# Input Write Data: 83c1f538
# Data Stored: 83c1f538
# 
#                   85   read_single_byte_seq_single_Htransfer_okay task in generator
# Scoreboard read
# Temp address = 7681b
# Read data from DUT 00000000
# Data from TB memory 00000000
# 
#                   90   write_single_halfword_seq_single_Htransfer_okay task in generator
# Scoreboard check...
# Input Address: 9bcfb
# Input Write Data: bce7de91
# Data Stored: bce7de91
# 
#                   95   read_single_word_seq_single_Htransfer_okay task in generator
# Scoreboard read
# Temp address = cff18
# Read data from DUT 00000000
# Data from TB memory 00000000
# 
#                  100   write_single_byte_seq_single_Htransfer_error task in generator
# Scoreboard check...
# Input Address: 9e7ad
# Input Write Data: e59bbcdf
# Data Stored: e59bbcdf
# 
#                  105   read_incr_halfword_seq_incr_Hburst_okay task in generator
# Scoreboard read
# Temp address = 56de4
# Read data from DUT 00000000
# Data from TB memory 00000000
# 
#                  110   write_incr_word_seq_incr_Hburst_okay task in generator
# Scoreboard check...
# Input Address: 8d663
# Input Write Data: 164817b2
# Data Stored: 164817b2
# 
#                  115   read_wrap4_byte_seq_wrap4_Hburst_okay task in generator
# Scoreboard read
# Temp address = 1102b
# Read data from DUT 00000000
# Data from TB memory 00000000
# 
#                  120   write_wrap4_halfword_seq_wrap4_Hburst_okay task in generator
# Scoreboard check...
# Input Address: 866a2
# Input Write Data: d5bcabc7
# Data Stored: d5bcabc7
# 
#                  125   read_wrap4_word_seq_wrap4_Hburst_okay task in generator
# Scoreboard read
# Temp address = 1e9c0
# Read data from DUT 00000000
# Data from TB memory 00000000
# 
#                  130   write_incr4_byte_seq_incr4_Hburst_okay task in generator
# Scoreboard check...
# Input Address: 12e24
# Input Write Data: 1ad9a39c
# Data Stored: 1ad9a39c
# 
#                  135   read_incr4_halfword_seq_incr4_Hburst_okay task in generator
# Scoreboard read
# Temp address = a27b5
# Read data from DUT 00000000
# Data from TB memory 00000000
# 
#                  140   write_incr4_word_seq_incr4_Hburst_okay task in generator
# Scoreboard check...
# Input Address: 4958d
# Input Write Data: b7ac919c
# Data Stored: b7ac919c
# 
#                  145   read_single_byte_nonseq_single_Htransfer_reset task in generator
# Scoreboard read
# Temp address = 306e5
# Read data from DUT 00000000
# Data from TB memory 00000000
# 
#                  150   write_single_halfword_nonseq_single_Htransfer_reset task in generator
# Scoreboard check...
# Input Address: 1a251
# Input Write Data: 9aa102b5
# Data Stored: 9aa102b5
# 
#                  155   read_single_word_nonseq_single_Htransfer_reset task in generator
# Scoreboard read
# Temp address = c3a78
# Read data from DUT 00000000
# Data from TB memory 00000000
# 
#                  160   write_incr_byte_nonseq_incr_Hburst_reset task in generator
# Scoreboard check...
# Input Address: a7e1d
# Input Write Data: c91d20fa
# Data Stored: c91d20fa
# 
#                  165   read_incr_halfword_nonseq_incr_Hburst_reset task in generator
# Scoreboard read
# Temp address = 96f50
# Read data from DUT 00000000
# Data from TB memory 00000000
# 
#                  170   write_incr_word_nonseq_incr_Hburst_reset task in generator
# Scoreboard check...
# Input Address: 45d5d
# Input Write Data: 5a91529a
# Data Stored: 5a91529a
# 
#                  175   read_wrap4_byte_nonseq_wrap4_Hburst_reset task in generator
# Scoreboard read
# Temp address = 674e0
# Read data from DUT 00000000
# Data from TB memory 00000000
# 
#                  180   write_wrap4_halfword_nonseq_wrap4_Hburst_reset task in generator
# Scoreboard check...
# Input Address: a7ca9
# Input Write Data: 5e8af291
# Data Stored: 5e8af291
# 
#                  185   read_wrap4_word_nonseq_wrap4_Hburst_reset task in generator
# Scoreboard read
# Temp address = abe7c
# Read data from DUT 00000000
# Data from TB memory 00000000
# 
#                  190   write_incr4_byte_nonseq_incr4_Hburst_reset task in generator
# Scoreboard check...
# Input Address: eac4f
# Input Write Data: c972206e
# Data Stored: c972206e
# 
#                  195   read_incr4_halfword_nonseq_incr4_Hburst_reset task in generator
# Scoreboard read
# Temp address = ae108
# Read data from DUT 00000000
# Data from TB memory 00000000
# 
#                  200   write_incr4_word_nonseq_incr4_Hburst_reset task in generator
# Scoreboard check...
# Input Address: ebd28
# Input Write Data: 834dcc22
# Data Stored: 834dcc22
# 
#                  205   write_incr4_word_idle_incr4_Hburst_reset task in generator
# Scoreboard check...
# Input Address: 8a906
# Input Write Data: dcb03697
# Data Stored: dcb03697
# 
#                  210   write_incr4_word_busy_incr4_Hburst_reset task in generator
# Scoreboard check...
# Input Address: 8b27a
# Input Write Data: 06dd9c7b
# Data Stored: 06dd9c7b
# 
#                  215   write_single_byte_idle_single_Htransfer_error task in generator
# Scoreboard check...
# Input Address: c57b0
# Input Write Data: ea784bad
# Data Stored: ea784bad
# 
# in test repeat
#                  220   write_single_halfword_nonseq_single_Htransfer_okay task in generator
# Scoreboard check...
# Input Address: 01b19
# Input Write Data: a5366b11
# Data Stored: a5366b11
# 
#                  225   read_single_word_nonseq_single_Htransfer_okay task in generator
# Scoreboard read
# Temp address = dbdf2
# Read data from DUT 00000000
# Data from TB memory 00000000
# 
#                  230   write_single_byte_nonseq_single_Htransfer_error task in generator
# Scoreboard check...
# Input Address: b9f26
# Input Write Data: 7258b16c
# Data Stored: 7258b16c
# 
#                  235   read_incr_halfword_nonseq_incr_Hburst_okay task in generator
# Scoreboard read
# Temp address = 5c63a
# Read data from DUT 00000000
# Data from TB memory 00000000
# 
#                  240   write_incr_word_nonseq_incr_Hburst_okay task in generator
# Scoreboard check...
# Input Address: 11a2f
# Input Write Data: 83dfe470
# Data Stored: 83dfe470
# 
#                  245   read_wrap4_byte_nonseq_wrap4_Hburst_okay task in generator
# Scoreboard read
# Temp address = 5fcdb
# Read data from DUT 00000000
# Data from TB memory 00000000
# 
#                  250   write_wrap4_halfword_nonseq_wrap4_Hburst_okay task in generator
# Scoreboard check...
# Input Address: ab661
# Input Write Data: 1df3f648
# Data Stored: 1df3f648
# 
#                  255   read_wrap4_word_nonseq_wrap4_Hburst_okay task in generator
# Scoreboard read
# Temp address = 6c3c0
# Read data from DUT 00000000
# Data from TB memory 00000000
# 
#                  260   write_incr4_byte_nonseq_incr4_Hburst_okay task in generator
# Scoreboard check...
# Input Address: c2281
# Input Write Data: 02b9e8ef
# Data Stored: 02b9e8ef
# 
#                  265   read_incr4_halfword_nonseq_incr4_Hburst_okay task in generator
# Scoreboard read
# Temp address = 92b21
# Read data from DUT 00000000
# Data from TB memory 00000000
# 
#                  270   write_incr4_word_nonseq_incr4_Hburst_okay task in generator
# Scoreboard check...
# Input Address: 9cc7f
# Input Write Data: 5e2b282e
# Data Stored: 5e2b282e
# 
#                  275   read_wrap8_byte_nonseq_wrap8_Hburst_okay task in generator
# Scoreboard read
# Temp address = 555f0
# Read data from DUT 00000000
# Data from TB memory 00000000
# 
#                  280   write_wrap8_halfword_nonseq_wrap8_Hburst_okay task in generator
# Scoreboard check...
# Input Address: a9341
# Input Write Data: 0424570e
# Data Stored: 0424570e
# 
#                  285   read_wrap8_word_nonseq_wrap8_Hburst_okay task in generator
# Scoreboard read
# Temp address = b9484
# Read data from DUT 00000000
# Data from TB memory 00000000
# 
# in env
#                  290   write_incr8_byte_nonseq_incr8_Hburst_okay task in generator
# Scoreboard check...
# Input Address: 3fe0d
# Input Write Data: 1aa9fe7b
# Data Stored: 1aa9fe7b
# 
#                  295   read_incr8_halfword_nonseq_incr8_Hburst_okay task in generator
# Scoreboard read
# Temp address = cf4ad
# Read data from DUT 00000000
# Data from TB memory 00000000
# 
#                  300   write_incr8_word_nonseq_incr8_Hburst_okay task in generator
# Scoreboard check...
# Input Address: b7f15
# Input Write Data: f134c31c
# Data Stored: f134c31c
# 
#                  305   read_single_byte_seq_single_Htransfer_okay task in generator
# Scoreboard read
# Temp address = 0be7f
# Read data from DUT 00000000
# Data from TB memory 00000000
# 
#                  310   write_single_halfword_seq_single_Htransfer_okay task in generator
# Scoreboard check...
# Input Address: b544c
# Input Write Data: 47dd5734
# Data Stored: 47dd5734
# 
#                  315   read_single_word_seq_single_Htransfer_okay task in generator
# Scoreboard read
# Temp address = d8cd7
# Read data from DUT 00000000
# Data from TB memory 00000000
# 
#                  320   write_single_byte_seq_single_Htransfer_error task in generator
# Scoreboard check...
# Input Address: 55ea7
# Input Write Data: 642836f5
# Data Stored: 642836f5
# 
#                  325   read_incr_halfword_seq_incr_Hburst_okay task in generator
# Scoreboard read
# Temp address = fad34
# Read data from DUT 00000000
# Data from TB memory 00000000
# 
#                  330   write_incr_word_seq_incr_Hburst_okay task in generator
# Scoreboard check...
# Input Address: 1a2f8
# Input Write Data: 887e586c
# Data Stored: 887e586c
# 
#                  335   read_wrap4_byte_seq_wrap4_Hburst_okay task in generator
# Scoreboard read
# Temp address = 903c1
# Read data from DUT 00000000
# Data from TB memory 00000000
# 
#                  340   write_wrap4_halfword_seq_wrap4_Hburst_okay task in generator
# Scoreboard check...
# Input Address: b810b
# Input Write Data: e006ad78
# Data Stored: e006ad78
# 
#                  345   read_wrap4_word_seq_wrap4_Hburst_okay task in generator
# Scoreboard read
# Temp address = cf88b
# Read data from DUT 00000000
# Data from TB memory 00000000
# 
#                  350   write_incr4_byte_seq_incr4_Hburst_okay task in generator
# Scoreboard check...
# Input Address: 4e9e4
# Input Write Data: 4345d5e2
# Data Stored: 4345d5e2
# 
#                  355   read_incr4_halfword_seq_incr4_Hburst_okay task in generator
# Scoreboard read
# Temp address = ab1ae
# Read data from DUT 00000000
# Data from TB memory 00000000
# 
#                  360   write_incr4_word_seq_incr4_Hburst_okay task in generator
# Scoreboard check...
# Input Address: d8cab
# Input Write Data: 9ad635b6
# Data Stored: 9ad635b6
# 
#                  365   read_single_byte_nonseq_single_Htransfer_reset task in generator
# Scoreboard read
# Temp address = 80efb
# Read data from DUT 00000000
# Data from TB memory 00000000
# 
#                  370   write_single_halfword_nonseq_single_Htransfer_reset task in generator
# Scoreboard check...
# Input Address: ccbf7
# Input Write Data: eea8e957
# Data Stored: eea8e957
# 
#                  375   read_single_word_nonseq_single_Htransfer_reset task in generator
# Scoreboard read
# Temp address = 19c98
# Read data from DUT 00000000
# Data from TB memory 00000000
# 
#                  380   write_incr_byte_nonseq_incr_Hburst_reset task in generator
# Scoreboard check...
# Input Address: 0f2f7
# Input Write Data: 6fbe69db
# Data Stored: 6fbe69db
# 
#                  385   read_incr_halfword_nonseq_incr_Hburst_reset task in generator
# Scoreboard read
# Temp address = ae618
# Read data from DUT 00000000
# Data from TB memory 00000000
# 
#                  390   write_incr_word_nonseq_incr_Hburst_reset task in generator
# Scoreboard check...
# Input Address: 0eef1
# Input Write Data: aeb09136
# Data Stored: aeb09136
# 
#                  395   read_wrap4_byte_nonseq_wrap4_Hburst_reset task in generator
# Scoreboard read
# Temp address = bad40
# Read data from DUT 00000000
# Data from TB memory 00000000
# 
#                  400   write_wrap4_halfword_nonseq_wrap4_Hburst_reset task in generator
# Scoreboard check...
# Input Address: 3c010
# Input Write Data: 0c60af99
# Data Stored: 0c60af99
# 
#                  405   read_wrap4_word_nonseq_wrap4_Hburst_reset task in generator
# Scoreboard read
# Temp address = 760d5
# Read data from DUT 00000000
# Data from TB memory 00000000
# 
#                  410   write_incr4_byte_nonseq_incr4_Hburst_reset task in generator
# Scoreboard check...
# Input Address: aa6dc
# Input Write Data: 7974c6ee
# Data Stored: 7974c6ee
# 
#                  415   read_incr4_halfword_nonseq_incr4_Hburst_reset task in generator
# Scoreboard read
# Temp address = 632d7
# Read data from DUT 00000000
# Data from TB memory 00000000
# 
#                  420   write_incr4_word_nonseq_incr4_Hburst_reset task in generator
# Scoreboard check...
# Input Address: 5ae3d
# Input Write Data: af89673b
# Data Stored: af89673b
# 
#                  425   write_incr4_word_idle_incr4_Hburst_reset task in generator
# Scoreboard check...
# Input Address: cbee5
# Input Write Data: 370468c5
# Data Stored: 370468c5
# 
#                  430   write_incr4_word_busy_incr4_Hburst_reset task in generator
# Scoreboard check...
# Input Address: 5f8b8
# Input Write Data: 57ebf685
# Data Stored: 57ebf685
# 
#                  435   write_single_byte_idle_single_Htransfer_error task in generator
# Scoreboard check...
# Input Address: 0ffe4
# Input Write Data: b8c2a65e
# Data Stored: b8c2a65e
# 
# in test repeat
#                  440   write_single_halfword_nonseq_single_Htransfer_okay task in generator
# Scoreboard check...
# Input Address: 7668a
# Input Write Data: 763775f7
# Data Stored: 763775f7
# 
#                  445   read_single_word_nonseq_single_Htransfer_okay task in generator
# Scoreboard read
# Temp address = 677b8
# Read data from DUT 00000000
# Data from TB memory 00000000
# 
#                  450   write_single_byte_nonseq_single_Htransfer_error task in generator
# Scoreboard check...
# Input Address: 43b7e
# Input Write Data: 59c992b9
# Data Stored: 59c992b9
# 
#                  455   read_incr_halfword_nonseq_incr_Hburst_okay task in generator
# Scoreboard read
# Temp address = a63cc
# Read data from DUT 00000000
# Data from TB memory 00000000
# 
#                  460   write_incr_word_nonseq_incr_Hburst_okay task in generator
# Scoreboard check...
# Input Address: b5494
# Input Write Data: 2353f2c8
# Data Stored: 2353f2c8
# 
#                  465   read_wrap4_byte_nonseq_wrap4_Hburst_okay task in generator
# Scoreboard read
# Temp address = 656a4
# Read data from DUT 00000000
# Data from TB memory 00000000
# 
#                  470   write_wrap4_halfword_nonseq_wrap4_Hburst_okay task in generator
# Scoreboard check...
# Input Address: f7ae7
# Input Write Data: a8c4391c
# Data Stored: a8c4391c
# 
#                  475   read_wrap4_word_nonseq_wrap4_Hburst_okay task in generator
# Scoreboard read
# Temp address = 7bb30
# Read data from DUT 00000000
# Data from TB memory 00000000
# 
#                  480   write_incr4_byte_nonseq_incr4_Hburst_okay task in generator
# Scoreboard check...
# Input Address: d9614
# Input Write Data: 5e72c41c
# Data Stored: 5e72c41c
# 
#                  485   read_incr4_halfword_nonseq_incr4_Hburst_okay task in generator
# Scoreboard read
# Temp address = cbc42
# Read data from DUT 00000000
# Data from TB memory 00000000
# 
#                  490   write_incr4_word_nonseq_incr4_Hburst_okay task in generator
# Scoreboard check...
# Input Address: 9d69b
# Input Write Data: 155c2ded
# Data Stored: 155c2ded
# 
#                  495   read_wrap8_byte_nonseq_wrap8_Hburst_okay task in generator
# Scoreboard read
# Temp address = e0bb0
# Read data from DUT 00000000
# Data from TB memory 00000000
# 
#                  500   write_wrap8_halfword_nonseq_wrap8_Hburst_okay task in generator
# Scoreboard check...
# Input Address: e57eb
# Input Write Data: 8223c754
# Data Stored: 8223c754
# 
#                  505   read_wrap8_word_nonseq_wrap8_Hburst_okay task in generator
# Scoreboard read
# Temp address = 6ea77
# Read data from DUT 00000000
# Data from TB memory 00000000
# 
# in env
#                  510   write_incr8_byte_nonseq_incr8_Hburst_okay task in generator
# Scoreboard check...
# Input Address: b54eb
# Input Write Data: 1b47ad01
# Data Stored: 1b47ad01
# 
#                  515   read_incr8_halfword_nonseq_incr8_Hburst_okay task in generator
# Scoreboard read
# Temp address = 07fe7
# Read data from DUT 00000000
# Data from TB memory 00000000
# 
#                  520   write_incr8_word_nonseq_incr8_Hburst_okay task in generator
# Scoreboard check...
# Input Address: 4503c
# Input Write Data: e8afaf3b
# Data Stored: e8afaf3b
# 
#                  525   read_single_byte_seq_single_Htransfer_okay task in generator
# Scoreboard read
# Temp address = 5afa4
# Read data from DUT 00000000
# Data from TB memory 00000000
# 
#                  530   write_single_halfword_seq_single_Htransfer_okay task in generator
# Scoreboard check...
# Input Address: f9fdd
# Input Write Data: 5b2e7ece
# Data Stored: 5b2e7ece
# 
#                  535   read_single_word_seq_single_Htransfer_okay task in generator
# Scoreboard read
# Temp address = ef246
# Read data from DUT 00000000
# Data from TB memory 00000000
# 
#                  540   write_single_byte_seq_single_Htransfer_error task in generator
# Scoreboard check...
# Input Address: 4ad54
# Input Write Data: 86da6ce3
# Data Stored: 86da6ce3
# 
#                  545   read_incr_halfword_seq_incr_Hburst_okay task in generator
# Scoreboard read
# Temp address = 1e6e8
# Read data from DUT 00000000
# Data from TB memory 00000000
# 
#                  550   write_incr_word_seq_incr_Hburst_okay task in generator
# Scoreboard check...
# Input Address: 09ec3
# Input Write Data: 40af1a52
# Data Stored: 40af1a52
# 
#                  555   read_wrap4_byte_seq_wrap4_Hburst_okay task in generator
# Scoreboard read
# Temp address = 0a10a
# Read data from DUT 00000000
# Data from TB memory 00000000
# 
#                  560   write_wrap4_halfword_seq_wrap4_Hburst_okay task in generator
# Scoreboard check...
# Input Address: aeb17
# Input Write Data: 9df2bfe4
# Data Stored: 9df2bfe4
# 
#                  565   read_wrap4_word_seq_wrap4_Hburst_okay task in generator
# Scoreboard read
# Temp address = fead2
# Read data from DUT 00000000
# Data from TB memory 00000000
# 
#                  570   write_incr4_byte_seq_incr4_Hburst_okay task in generator
# Scoreboard check...
# Input Address: 82154
# Input Write Data: b3d0b82d
# Data Stored: b3d0b82d
# 
#                  575   read_incr4_halfword_seq_incr4_Hburst_okay task in generator
# Scoreboard read
# Temp address = 3b027
# Read data from DUT 00000000
# Data from TB memory 00000000
# 
#                  580   write_incr4_word_seq_incr4_Hburst_okay task in generator
# Scoreboard check...
# Input Address: f68b0
# Input Write Data: addd7333
# Data Stored: addd7333
# 
#                  585   read_single_byte_nonseq_single_Htransfer_reset task in generator
# Scoreboard read
# Temp address = ab843
# Read data from DUT 00000000
# Data from TB memory 00000000
# 
#                  590   write_single_halfword_nonseq_single_Htransfer_reset task in generator
# Scoreboard check...
# Input Address: 0bbf4
# Input Write Data: e28cd812
# Data Stored: e28cd812
# 
#                  595   read_single_word_nonseq_single_Htransfer_reset task in generator
# Scoreboard read
# Temp address = 2c060
# Read data from DUT 00000000
# Data from TB memory 00000000
# 
#                  600   write_incr_byte_nonseq_incr_Hburst_reset task in generator
# Scoreboard check...
# Input Address: 3dae4
# Input Write Data: 70b5a1d6
# Data Stored: 70b5a1d6
# 
#                  605   read_incr_halfword_nonseq_incr_Hburst_reset task in generator
# Scoreboard read
# Temp address = ee44b
# Read data from DUT 00000000
# Data from TB memory 00000000
# 
#                  610   write_incr_word_nonseq_incr_Hburst_reset task in generator
# Scoreboard check...
# Input Address: 0e620
# Input Write Data: 260d62c1
# Data Stored: 260d62c1
# 
#                  615   read_wrap4_byte_nonseq_wrap4_Hburst_reset task in generator
# Scoreboard read
# Temp address = 13350
# Read data from DUT 00000000
# Data from TB memory 00000000
# 
#                  620   write_wrap4_halfword_nonseq_wrap4_Hburst_reset task in generator
# Scoreboard check...
# Input Address: 13e86
# Input Write Data: 65b3c613
# Data Stored: 65b3c613
# 
#                  625   read_wrap4_word_nonseq_wrap4_Hburst_reset task in generator
# Scoreboard read
# Temp address = 7d5e6
# Read data from DUT 00000000
# Data from TB memory 00000000
# 
#                  630   write_incr4_byte_nonseq_incr4_Hburst_reset task in generator
# Scoreboard check...
# Input Address: f627a
# Input Write Data: fe2dab6f
# Data Stored: fe2dab6f
# 
#                  635   read_incr4_halfword_nonseq_incr4_Hburst_reset task in generator
# Scoreboard read
# Temp address = d4d9b
# Read data from DUT 00000000
# Data from TB memory 00000000
# 
#                  640   write_incr4_word_nonseq_incr4_Hburst_reset task in generator
# Scoreboard check...
# Input Address: 8e01b
# Input Write Data: e9d844e1
# Data Stored: e9d844e1
# 
#                  645   write_incr4_word_idle_incr4_Hburst_reset task in generator
# Scoreboard check...
# Input Address: 9f45b
# Input Write Data: bbabd277
# Data Stored: bbabd277
# 
#                  650   write_incr4_word_busy_incr4_Hburst_reset task in generator
# Scoreboard check...
# Input Address: 41ccc
# Input Write Data: a514bda5
# Data Stored: a514bda5
# 
#                  655   write_single_byte_idle_single_Htransfer_error task in generator
# Scoreboard check...
# Input Address: 90b60
# Input Write Data: b84d1118
# Data Stored: b84d1118
# 
# in test repeat
#                  660   write_single_halfword_nonseq_single_Htransfer_okay task in generator
# Scoreboard check...
# Input Address: 61000
# Input Write Data: 75d33598
# Data Stored: 75d33598
# 
#                  665   read_single_word_nonseq_single_Htransfer_okay task in generator
# Scoreboard read
# Temp address = d709b
# Read data from DUT 00000000
# Data from TB memory 00000000
# 
#                  670   write_single_byte_nonseq_single_Htransfer_error task in generator
# Scoreboard check...
# Input Address: 98d03
# Input Write Data: a92bf73d
# Data Stored: a92bf73d
# 
#                  675   read_incr_halfword_nonseq_incr_Hburst_okay task in generator
# Scoreboard read
# Temp address = 52fd7
# Read data from DUT 00000000
# Data from TB memory 00000000
# 
#                  680   write_incr_word_nonseq_incr_Hburst_okay task in generator
# Scoreboard check...
# Input Address: d8b00
# Input Write Data: 3d75d777
# Data Stored: 3d75d777
# 
#                  685   read_wrap4_byte_nonseq_wrap4_Hburst_okay task in generator
# Scoreboard read
# Temp address = e24b6
# Read data from DUT 00000000
# Data from TB memory 00000000
# 
#                  690   write_wrap4_halfword_nonseq_wrap4_Hburst_okay task in generator
# Scoreboard check...
# Input Address: 3b711
# Input Write Data: 774e7e12
# Data Stored: 774e7e12
# 
#                  695   read_wrap4_word_nonseq_wrap4_Hburst_okay task in generator
# Scoreboard read
# Temp address = 9ca6d
# Read data from DUT 00000000
# Data from TB memory 00000000
# 
#                  700   write_incr4_byte_nonseq_incr4_Hburst_okay task in generator
# Scoreboard check...
# Input Address: 3a2a9
# Input Write Data: da1eb529
# Data Stored: da1eb529
# 
#                  705   read_incr4_halfword_nonseq_incr4_Hburst_okay task in generator
# Scoreboard read
# Temp address = 3009f
# Read data from DUT 00000000
# Data from TB memory 00000000
# 
#                  710   write_incr4_word_nonseq_incr4_Hburst_okay task in generator
# Scoreboard check...
# Input Address: f098c
# Input Write Data: 4349995e
# Data Stored: 4349995e
# 
#                  715   read_wrap8_byte_nonseq_wrap8_Hburst_okay task in generator
# Scoreboard read
# Temp address = 584c2
# Read data from DUT 00000000
# Data from TB memory 00000000
# 
#                  720   write_wrap8_halfword_nonseq_wrap8_Hburst_okay task in generator
# Scoreboard check...
# Input Address: afb18
# Input Write Data: 1c88c380
# Data Stored: 1c88c380
# 
#                  725   read_wrap8_word_nonseq_wrap8_Hburst_okay task in generator
# Scoreboard read
# Temp address = 7df1f
# Read data from DUT 00000000
# Data from TB memory 00000000
# 
# in env
#                  730   write_incr8_byte_nonseq_incr8_Hburst_okay task in generator
# Scoreboard check...
# Input Address: f0af2
# Input Write Data: 712decb9
# Data Stored: 712decb9
# 
#                  735   read_incr8_halfword_nonseq_incr8_Hburst_okay task in generator
# Scoreboard read
# Temp address = 9dc0b
# Read data from DUT 00000000
# Data from TB memory 00000000
# 
#                  740   write_incr8_word_nonseq_incr8_Hburst_okay task in generator
# Scoreboard check...
# Input Address: 9cd55
# Input Write Data: 89ebbd71
# Data Stored: 89ebbd71
# 
#                  745   read_single_byte_seq_single_Htransfer_okay task in generator
# Scoreboard read
# Temp address = 188b1
# Read data from DUT 00000000
# Data from TB memory 00000000
# 
#                  750   write_single_halfword_seq_single_Htransfer_okay task in generator
# Scoreboard check...
# Input Address: d7f14
# Input Write Data: 6120e7ed
# Data Stored: 6120e7ed
# 
#                  755   read_single_word_seq_single_Htransfer_okay task in generator
# Scoreboard read
# Temp address = ee7e2
# Read data from DUT 00000000
# Data from TB memory 00000000
# 
#                  760   write_single_byte_seq_single_Htransfer_error task in generator
# Scoreboard check...
# Input Address: 536f8
# Input Write Data: de43e378
# Data Stored: de43e378
# 
#                  765   read_incr_halfword_seq_incr_Hburst_okay task in generator
# Scoreboard read
# Temp address = 11f99
# Read data from DUT 00000000
# Data from TB memory 00000000
# 
#                  770   write_incr_word_seq_incr_Hburst_okay task in generator
# Scoreboard check...
# Input Address: 5f762
# Input Write Data: fe88651c
# Data Stored: fe88651c
# 
#                  775   read_wrap4_byte_seq_wrap4_Hburst_okay task in generator
# Scoreboard read
# Temp address = 2b641
# Read data from DUT 00000000
# Data from TB memory 00000000
# 
#                  780   write_wrap4_halfword_seq_wrap4_Hburst_okay task in generator
# Scoreboard check...
# Input Address: 18a0b
# Input Write Data: 7e83bcb1
# Data Stored: 7e83bcb1
# 
#                  785   read_wrap4_word_seq_wrap4_Hburst_okay task in generator
# Scoreboard read
# Temp address = 295cb
# Read data from DUT 00000000
# Data from TB memory 00000000
# 
#                  790   write_incr4_byte_seq_incr4_Hburst_okay task in generator
# Scoreboard check...
# Input Address: 9609f
# Input Write Data: c48f669f
# Data Stored: c48f669f
# 
#                  795   read_incr4_halfword_seq_incr4_Hburst_okay task in generator
# Scoreboard read
# Temp address = 3170c
# Read data from DUT 00000000
# Data from TB memory 00000000
# 
#                  800   write_incr4_word_seq_incr4_Hburst_okay task in generator
# Scoreboard check...
# Input Address: c9245
# Input Write Data: d07d0d1e
# Data Stored: d07d0d1e
# 
#                  805   read_single_byte_nonseq_single_Htransfer_reset task in generator
# Scoreboard read
# Temp address = 520d0
# Read data from DUT 00000000
# Data from TB memory 00000000
# 
#                  810   write_single_halfword_nonseq_single_Htransfer_reset task in generator
# Scoreboard check...
# Input Address: 333cb
# Input Write Data: d7168450
# Data Stored: d7168450
# 
#                  815   read_single_word_nonseq_single_Htransfer_reset task in generator
# Scoreboard read
# Temp address = 9fb6a
# Read data from DUT 00000000
# Data from TB memory 00000000
# 
#                  820   write_incr_byte_nonseq_incr_Hburst_reset task in generator
# Scoreboard check...
# Input Address: 6a286
# Input Write Data: ff6bf305
# Data Stored: ff6bf305
# 
#                  825   read_incr_halfword_nonseq_incr_Hburst_reset task in generator
# Scoreboard read
# Temp address = fc364
# Read data from DUT 00000000
# Data from TB memory 00000000
# 
#                  830   write_incr_word_nonseq_incr_Hburst_reset task in generator
# Scoreboard check...
# Input Address: 1a256
# Input Write Data: 3178848a
# Data Stored: 3178848a
# 
#                  835   read_wrap4_byte_nonseq_wrap4_Hburst_reset task in generator
# Scoreboard read
# Temp address = 033bf
# Read data from DUT 00000000
# Data from TB memory 00000000
# 
#                  840   write_wrap4_halfword_nonseq_wrap4_Hburst_reset task in generator
# Scoreboard check...
# Input Address: a2949
# Input Write Data: fea34a76
# Data Stored: fea34a76
# 
#                  845   read_wrap4_word_nonseq_wrap4_Hburst_reset task in generator
# Scoreboard read
# Temp address = 0a3b0
# Read data from DUT 00000000
# Data from TB memory 00000000
# 
#                  850   write_incr4_byte_nonseq_incr4_Hburst_reset task in generator
# Scoreboard check...
# Input Address: d2950
# Input Write Data: 27053a93
# Data Stored: 27053a93
# 
#                  855   read_incr4_halfword_nonseq_incr4_Hburst_reset task in generator
# Scoreboard read
# Temp address = 39342
# Read data from DUT 00000000
# Data from TB memory 00000000
# 
#                  860   write_incr4_word_nonseq_incr4_Hburst_reset task in generator
# Scoreboard check...
# Input Address: 61cb7
# Input Write Data: 0facc451
# Data Stored: 0facc451
# 
#                  865   write_incr4_word_idle_incr4_Hburst_reset task in generator
# Scoreboard check...
# Input Address: 83da5
# Input Write Data: cf89f0e8
# Data Stored: cf89f0e8
# 
#                  870   write_incr4_word_busy_incr4_Hburst_reset task in generator
# Scoreboard check...
# Input Address: e9875
# Input Write Data: 8e6b064d
# Data Stored: 8e6b064d
# 
#                  875   write_single_byte_idle_single_Htransfer_error task in generator
# Scoreboard check...
# Input Address: bf2de
# Input Write Data: d687ee9b
# Data Stored: d687ee9b
# 
# in test repeat
#                  880   write_single_halfword_nonseq_single_Htransfer_okay task in generator
# Scoreboard check...
# Input Address: 2fe1e
# Input Write Data: b57e5b3f
# Data Stored: b57e5b3f
# 
#                  885   read_single_word_nonseq_single_Htransfer_okay task in generator
# Scoreboard read
# Temp address = bef40
# Read data from DUT 00000000
# Data from TB memory 00000000
# 
#                  890   write_single_byte_nonseq_single_Htransfer_error task in generator
# Scoreboard check...
# Input Address: d4284
# Input Write Data: f3b13e4b
# Data Stored: f3b13e4b
# 
#                  895   read_incr_halfword_nonseq_incr_Hburst_okay task in generator
# Scoreboard read
# Temp address = 720be
# Read data from DUT 00000000
# Data from TB memory 00000000
# 
#                  900   write_incr_word_nonseq_incr_Hburst_okay task in generator
# Scoreboard check...
# Input Address: 36534
# Input Write Data: 471294c0
# Data Stored: 471294c0
# 
#                  905   read_wrap4_byte_nonseq_wrap4_Hburst_okay task in generator
# Scoreboard read
# Temp address = 62050
# Read data from DUT 00000000
# Data from TB memory 00000000
# 
#                  910   write_wrap4_halfword_nonseq_wrap4_Hburst_okay task in generator
# Scoreboard check...
# Input Address: 3cd1b
# Input Write Data: 45003b53
# Data Stored: 45003b53
# 
#                  915   read_wrap4_word_nonseq_wrap4_Hburst_okay task in generator
# Scoreboard read
# Temp address = f266d
# Read data from DUT 00000000
# Data from TB memory 00000000
# 
#                  920   write_incr4_byte_nonseq_incr4_Hburst_okay task in generator
# Scoreboard check...
# Input Address: 8a628
# Input Write Data: a489d461
# Data Stored: a489d461
# 
#                  925   read_incr4_halfword_nonseq_incr4_Hburst_okay task in generator
# Scoreboard read
# Temp address = 84815
# Read data from DUT 00000000
# Data from TB memory 00000000
# 
#                  930   write_incr4_word_nonseq_incr4_Hburst_okay task in generator
# Scoreboard check...
# Input Address: c8812
# Input Write Data: f546fbb1
# Data Stored: f546fbb1
# 
#                  935   read_wrap8_byte_nonseq_wrap8_Hburst_okay task in generator
# Scoreboard read
# Temp address = 5efc3
# Read data from DUT 00000000
# Data from TB memory 00000000
# 
#                  940   write_wrap8_halfword_nonseq_wrap8_Hburst_okay task in generator
# Scoreboard check...
# Input Address: 13ab1
# Input Write Data: 7fc2d43a
# Data Stored: 7fc2d43a
# 
#                  945   read_wrap8_word_nonseq_wrap8_Hburst_okay task in generator
# Scoreboard read
# Temp address = 970d7
# Read data from DUT 00000000
# Data from TB memory 00000000
# 
# in env
#                  950   write_incr8_byte_nonseq_incr8_Hburst_okay task in generator
# Scoreboard check...
# Input Address: 981cb
# Input Write Data: af01f3d0
# Data Stored: af01f3d0
# 
#                  955   read_incr8_halfword_nonseq_incr8_Hburst_okay task in generator
# Scoreboard read
# Temp address = 941c9
# Read data from DUT 00000000
# Data from TB memory 00000000
# 
#                  960   write_incr8_word_nonseq_incr8_Hburst_okay task in generator
# Scoreboard check...
# Input Address: 6b4bb
# Input Write Data: dbeaff96
# Data Stored: dbeaff96
# 
#                  965   read_single_byte_seq_single_Htransfer_okay task in generator
# Scoreboard read
# Temp address = 1cec2
# Read data from DUT 00000000
# Data from TB memory 00000000
# 
#                  970   write_single_halfword_seq_single_Htransfer_okay task in generator
# Scoreboard check...
# Input Address: 6d1dc
# Input Write Data: 39f2e33c
# Data Stored: 39f2e33c
# 
#                  975   read_single_word_seq_single_Htransfer_okay task in generator
# Scoreboard read
# Temp address = 92ca3
# Read data from DUT 00000000
# Data from TB memory 00000000
# 
#                  980   write_single_byte_seq_single_Htransfer_error task in generator
# Scoreboard check...
# Input Address: c9f7f
# Input Write Data: 77db1e3a
# Data Stored: 77db1e3a
# 
#                  985   read_incr_halfword_seq_incr_Hburst_okay task in generator
# Scoreboard read
# Temp address = 0cca1
# Read data from DUT 00000000
# Data from TB memory 00000000
# 
#                  990   write_incr_word_seq_incr_Hburst_okay task in generator
# Scoreboard check...
# Input Address: 689ca
# Input Write Data: 3fe57966
# Data Stored: 3fe57966
# 
#                  995   read_wrap4_byte_seq_wrap4_Hburst_okay task in generator
# Scoreboard read
# Temp address = 48057
# Read data from DUT 00000000
# Data from TB memory 00000000
# 
#                 1000   write_wrap4_halfword_seq_wrap4_Hburst_okay task in generator
# Scoreboard check...
# Input Address: c4885
# Input Write Data: 183df000
# Data Stored: 183df000
# 
#                 1005   read_wrap4_word_seq_wrap4_Hburst_okay task in generator
# Scoreboard read
# Temp address = ca15a
# Read data from DUT 00000000
# Data from TB memory 00000000
# 
#                 1010   write_incr4_byte_seq_incr4_Hburst_okay task in generator
# Scoreboard check...
# Input Address: f76b0
# Input Write Data: 9841ea2a
# Data Stored: 9841ea2a
# 
#                 1015   read_incr4_halfword_seq_incr4_Hburst_okay task in generator
# Scoreboard read
# Temp address = 9eb4a
# Read data from DUT 00000000
# Data from TB memory 00000000
# 
#                 1020   write_incr4_word_seq_incr4_Hburst_okay task in generator
# Scoreboard check...
# Input Address: 73244
# Input Write Data: e39b8314
# Data Stored: e39b8314
# 
#                 1025   read_single_byte_nonseq_single_Htransfer_reset task in generator
# Scoreboard read
# Temp address = 43c8c
# Read data from DUT 00000000
# Data from TB memory 00000000
# 
#                 1030   write_single_halfword_nonseq_single_Htransfer_reset task in generator
# Scoreboard check...
# Input Address: 463dd
# Input Write Data: 9c51f3fb
# Data Stored: 9c51f3fb
# 
#                 1035   read_single_word_nonseq_single_Htransfer_reset task in generator
# Scoreboard read
# Temp address = bcdaf
# Read data from DUT 00000000
# Data from TB memory 00000000
# 
#                 1040   write_incr_byte_nonseq_incr_Hburst_reset task in generator
# Scoreboard check...
# Input Address: 4662f
# Input Write Data: c250e0f5
# Data Stored: c250e0f5
# 
#                 1045   read_incr_halfword_nonseq_incr_Hburst_reset task in generator
# Scoreboard read
# Temp address = d43e2
# Read data from DUT 00000000
# Data from TB memory 00000000
# 
#                 1050   write_incr_word_nonseq_incr_Hburst_reset task in generator
# Scoreboard check...
# Input Address: 27dfc
# Input Write Data: ef4d5eca
# Data Stored: ef4d5eca
# 
#                 1055   read_wrap4_byte_nonseq_wrap4_Hburst_reset task in generator
# Scoreboard read
# Temp address = ac865
# Read data from DUT 00000000
# Data from TB memory 00000000
# 
#                 1060   write_wrap4_halfword_nonseq_wrap4_Hburst_reset task in generator
# Scoreboard check...
# Input Address: 94933
# Input Write Data: 6c56fd00
# Data Stored: 6c56fd00
# 
#                 1065   read_wrap4_word_nonseq_wrap4_Hburst_reset task in generator
# Scoreboard read
# Temp address = 0ceba
# Read data from DUT 00000000
# Data from TB memory 00000000
# 
#                 1070   write_incr4_byte_nonseq_incr4_Hburst_reset task in generator
# Scoreboard check...
# Input Address: f84d5
# Input Write Data: 418dd2d7
# Data Stored: 418dd2d7
# 
#                 1075   read_incr4_halfword_nonseq_incr4_Hburst_reset task in generator
# Scoreboard read
# Temp address = ff2e6
# Read data from DUT 00000000
# Data from TB memory 00000000
# 
#                 1080   write_incr4_word_nonseq_incr4_Hburst_reset task in generator
# Scoreboard check...
# Input Address: fd967
# Input Write Data: 2365edf5
# Data Stored: 2365edf5
# 
#                 1085   write_incr4_word_idle_incr4_Hburst_reset task in generator
# Scoreboard check...
# Input Address: 5c3b9
# Input Write Data: d3ba52a1
# Data Stored: d3ba52a1
# 
#                 1090   write_incr4_word_busy_incr4_Hburst_reset task in generator
# Scoreboard check...
# Input Address: 26556
# Input Write Data: 6b17e477
# Data Stored: 6b17e477
# 
#                 1095   write_single_byte_idle_single_Htransfer_error task in generator
# Scoreboard check...
# Input Address: c7234
# Input Write Data: 13d1dc35
# Data Stored: 13d1dc35
# 
# in test repeat
#                 1100   write_single_halfword_nonseq_single_Htransfer_okay task in generator
# Scoreboard check...
# Input Address: e57f9
# Input Write Data: 81b98731
# Data Stored: 81b98731
# 
#                 1105   read_single_word_nonseq_single_Htransfer_okay task in generator
# Scoreboard read
# Temp address = 73a01
# Read data from DUT 00000000
# Data from TB memory 00000000
# 
#                 1110   write_single_byte_nonseq_single_Htransfer_error task in generator
# Scoreboard check...
# Input Address: d9a4e
# Input Write Data: d55a8561
# Data Stored: d55a8561
# 
#                 1115   read_incr_halfword_nonseq_incr_Hburst_okay task in generator
# Scoreboard read
# Temp address = ef5cd
# Read data from DUT 00000000
# Data from TB memory 00000000
# 
#                 1120   write_incr_word_nonseq_incr_Hburst_okay task in generator
# Scoreboard check...
# Input Address: 10bf3
# Input Write Data: 3cfad907
# Data Stored: 3cfad907
# 
#                 1125   read_wrap4_byte_nonseq_wrap4_Hburst_okay task in generator
# Scoreboard read
# Temp address = 8e314
# Read data from DUT 00000000
# Data from TB memory 00000000
# 
#                 1130   write_wrap4_halfword_nonseq_wrap4_Hburst_okay task in generator
# Scoreboard check...
# Input Address: 14c05
# Input Write Data: ada5bc8b
# Data Stored: ada5bc8b
# 
#                 1135   read_wrap4_word_nonseq_wrap4_Hburst_okay task in generator
# Scoreboard read
# Temp address = d1334
# Read data from DUT 00000000
# Data from TB memory 00000000
# 
#                 1140   write_incr4_byte_nonseq_incr4_Hburst_okay task in generator
# Scoreboard check...
# Input Address: 13877
# Input Write Data: c4f97d07
# Data Stored: c4f97d07
# 
#                 1145   read_incr4_halfword_nonseq_incr4_Hburst_okay task in generator
# Scoreboard read
# Temp address = f98bf
# Read data from DUT 00000000
# Data from TB memory 00000000
# 
#                 1150   write_incr4_word_nonseq_incr4_Hburst_okay task in generator
# Scoreboard check...
# Input Address: ceeff
# Input Write Data: 9344b4fe
# Data Stored: 9344b4fe
# 
#                 1155   read_wrap8_byte_nonseq_wrap8_Hburst_okay task in generator
# Scoreboard read
# Temp address = 72345
# Read data from DUT 00000000
# Data from TB memory 00000000
# 
#                 1160   write_wrap8_halfword_nonseq_wrap8_Hburst_okay task in generator
# Scoreboard check...
# Input Address: fce83
# Input Write Data: b0b43eeb
# Data Stored: b0b43eeb
# 
#                 1165   read_wrap8_word_nonseq_wrap8_Hburst_okay task in generator
# Scoreboard read
# Temp address = 0b178
# Read data from DUT 00000000
# Data from TB memory 00000000
# 
# in env
#                 1170   write_incr8_byte_nonseq_incr8_Hburst_okay task in generator
# Scoreboard check...
# Input Address: 95ab3
# Input Write Data: 7e03e225
# Data Stored: 7e03e225
# 
#                 1175   read_incr8_halfword_nonseq_incr8_Hburst_okay task in generator
# Scoreboard read
# Temp address = 4e033
# Read data from DUT 00000000
# Data from TB memory 00000000
# 
#                 1180   write_incr8_word_nonseq_incr8_Hburst_okay task in generator
# Scoreboard check...
# Input Address: fa555
# Input Write Data: 48e98709
# Data Stored: 48e98709
# 
#                 1185   read_single_byte_seq_single_Htransfer_okay task in generator
# Scoreboard read
# Temp address = 8bb0e
# Read data from DUT 00000000
# Data from TB memory 00000000
# 
#                 1190   write_single_halfword_seq_single_Htransfer_okay task in generator
# Scoreboard check...
# Input Address: 3f1e2
# Input Write Data: 3b6370b6
# Data Stored: 3b6370b6
# 
#                 1195   read_single_word_seq_single_Htransfer_okay task in generator
# Scoreboard read
# Temp address = 32e75
# Read data from DUT 00000000
# Data from TB memory 00000000
# 
#                 1200   write_single_byte_seq_single_Htransfer_error task in generator
# Scoreboard check...
# Input Address: ca408
# Input Write Data: c3fbee4f
# Data Stored: c3fbee4f
# 
#                 1205   read_incr_halfword_seq_incr_Hburst_okay task in generator
# Scoreboard read
# Temp address = ab09e
# Read data from DUT 00000000
# Data from TB memory 00000000
# 
#                 1210   write_incr_word_seq_incr_Hburst_okay task in generator
# Scoreboard check...
# Input Address: ddeb6
# Input Write Data: ab295542
# Data Stored: ab295542
# 
#                 1215   read_wrap4_byte_seq_wrap4_Hburst_okay task in generator
# Scoreboard read
# Temp address = 0b7eb
# Read data from DUT 00000000
# Data from TB memory 00000000
# 
#                 1220   write_wrap4_halfword_seq_wrap4_Hburst_okay task in generator
# Scoreboard check...
# Input Address: 381b8
# Input Write Data: 6788f868
# Data Stored: 6788f868
# 
#                 1225   read_wrap4_word_seq_wrap4_Hburst_okay task in generator
# Scoreboard read
# Temp address = 36c29
# Read data from DUT 00000000
# Data from TB memory 00000000
# 
#                 1230   write_incr4_byte_seq_incr4_Hburst_okay task in generator
# Scoreboard check...
# Input Address: 4ac7d
# Input Write Data: f58283e9
# Data Stored: f58283e9
# 
#                 1235   read_incr4_halfword_seq_incr4_Hburst_okay task in generator
# Scoreboard read
# Temp address = c3727
# Read data from DUT 00000000
# Data from TB memory 00000000
# 
#                 1240   write_incr4_word_seq_incr4_Hburst_okay task in generator
# Scoreboard check...
# Input Address: 0fcaa
# Input Write Data: 50fac684
# Data Stored: 50fac684
# 
#                 1245   read_single_byte_nonseq_single_Htransfer_reset task in generator
# Scoreboard read
# Temp address = c1028
# Read data from DUT 00000000
# Data from TB memory 00000000
# 
#                 1250   write_single_halfword_nonseq_single_Htransfer_reset task in generator
# Scoreboard check...
# Input Address: 36e6f
# Input Write Data: 59fdc3fb
# Data Stored: 59fdc3fb
# 
#                 1255   read_single_word_nonseq_single_Htransfer_reset task in generator
# Scoreboard read
# Temp address = 84063
# Read data from DUT 00000000
# Data from TB memory 00000000
# 
#                 1260   write_incr_byte_nonseq_incr_Hburst_reset task in generator
# Scoreboard check...
# Input Address: b31db
# Input Write Data: a9961774
# Data Stored: a9961774
# 
#                 1265   read_incr_halfword_nonseq_incr_Hburst_reset task in generator
# Scoreboard read
# Temp address = 80314
# Read data from DUT 00000000
# Data from TB memory 00000000
# 
#                 1270   write_incr_word_nonseq_incr_Hburst_reset task in generator
# Scoreboard check...
# Input Address: 0ddfe
# Input Write Data: 499cefa8
# Data Stored: 499cefa8
# 
#                 1275   read_wrap4_byte_nonseq_wrap4_Hburst_reset task in generator
# Scoreboard read
# Temp address = 8a942
# Read data from DUT 00000000
# Data from TB memory 00000000
# 
#                 1280   write_wrap4_halfword_nonseq_wrap4_Hburst_reset task in generator
# Scoreboard check...
# Input Address: 128b9
# Input Write Data: b1b50c5d
# Data Stored: b1b50c5d
# 
#                 1285   read_wrap4_word_nonseq_wrap4_Hburst_reset task in generator
# Scoreboard read
# Temp address = 8a55b
# Read data from DUT 00000000
# Data from TB memory 00000000
# 
#                 1290   write_incr4_byte_nonseq_incr4_Hburst_reset task in generator
# Scoreboard check...
# Input Address: df4f7
# Input Write Data: 61f5e544
# Data Stored: 61f5e544
# 
#                 1295   read_incr4_halfword_nonseq_incr4_Hburst_reset task in generator
# Scoreboard read
# Temp address = 3d77c
# Read data from DUT 00000000
# Data from TB memory 00000000
# 
#                 1300   write_incr4_word_nonseq_incr4_Hburst_reset task in generator
# Scoreboard check...
# Input Address: 66e90
# Input Write Data: 18235a24
# Data Stored: 18235a24
# 
#                 1305   write_incr4_word_idle_incr4_Hburst_reset task in generator
# Scoreboard check...
# Input Address: e1592
# Input Write Data: 6439834e
# Data Stored: 6439834e
# 
#                 1310   write_incr4_word_busy_incr4_Hburst_reset task in generator
# Scoreboard check...
# Input Address: eec54
# Input Write Data: d6b6a6fc
# Data Stored: d6b6a6fc
# 
#                 1315   write_single_byte_idle_single_Htransfer_error task in generator
# Scoreboard check...
# Input Address: 41e65
# Input Write Data: 7453fc47
# Data Stored: 7453fc47
# 
# in test repeat
#                 1320   write_single_halfword_nonseq_single_Htransfer_okay task in generator
# Scoreboard check...
# Input Address: 8718b
# Input Write Data: c4816d42
# Data Stored: c4816d42
# 
#                 1325   read_single_word_nonseq_single_Htransfer_okay task in generator
# Scoreboard read
# Temp address = 97b5d
# Read data from DUT 00000000
# Data from TB memory 00000000
# 
#                 1330   write_single_byte_nonseq_single_Htransfer_error task in generator
# Scoreboard check...
# Input Address: 78303
# Input Write Data: c929e610
# Data Stored: c929e610
# 
#                 1335   read_incr_halfword_nonseq_incr_Hburst_okay task in generator
# Scoreboard read
# Temp address = 47be8
# Read data from DUT 00000000
# Data from TB memory 00000000
# 
#                 1340   write_incr_word_nonseq_incr_Hburst_okay task in generator
# Scoreboard check...
# Input Address: fb3fc
# Input Write Data: 0d434f62
# Data Stored: 0d434f62
# 
#                 1345   read_wrap4_byte_nonseq_wrap4_Hburst_okay task in generator
# Scoreboard read
# Temp address = 71621
# Read data from DUT 00000000
# Data from TB memory 00000000
# 
#                 1350   write_wrap4_halfword_nonseq_wrap4_Hburst_okay task in generator
# Scoreboard check...
# Input Address: 2b5a4
# Input Write Data: 2a361973
# Data Stored: 2a361973
# 
#                 1355   read_wrap4_word_nonseq_wrap4_Hburst_okay task in generator
# Scoreboard read
# Temp address = cf1b9
# Read data from DUT 00000000
# Data from TB memory 00000000
# 
#                 1360   write_incr4_byte_nonseq_incr4_Hburst_okay task in generator
# Scoreboard check...
# Input Address: 509f4
# Input Write Data: 15ad5da9
# Data Stored: 15ad5da9
# 
#                 1365   read_incr4_halfword_nonseq_incr4_Hburst_okay task in generator
# Scoreboard read
# Temp address = 0e381
# Read data from DUT 00000000
# Data from TB memory 00000000
# 
#                 1370   write_incr4_word_nonseq_incr4_Hburst_okay task in generator
# Scoreboard check...
# Input Address: 985eb
# Input Write Data: 0a05a24b
# Data Stored: 0a05a24b
# 
#                 1375   read_wrap8_byte_nonseq_wrap8_Hburst_okay task in generator
# Scoreboard read
# Temp address = 63d75
# Read data from DUT 00000000
# Data from TB memory 00000000
# 
#                 1380   write_wrap8_halfword_nonseq_wrap8_Hburst_okay task in generator
# Scoreboard check...
# Input Address: c9467
# Input Write Data: 452e8cb6
# Data Stored: 452e8cb6
# 
#                 1385   read_wrap8_word_nonseq_wrap8_Hburst_okay task in generator
# Scoreboard read
# Temp address = a12d9
# Read data from DUT 00000000
# Data from TB memory 00000000
# 
# in env
#                 1390   write_incr8_byte_nonseq_incr8_Hburst_okay task in generator
# Scoreboard check...
# Input Address: e0b85
# Input Write Data: b568b788
# Data Stored: b568b788
# 
#                 1395   read_incr8_halfword_nonseq_incr8_Hburst_okay task in generator
# Scoreboard read
# Temp address = 93be2
# Read data from DUT 00000000
# Data from TB memory 00000000
# 
#                 1400   write_incr8_word_nonseq_incr8_Hburst_okay task in generator
# Scoreboard check...
# Input Address: c8486
# Input Write Data: a6fdadb4
# Data Stored: a6fdadb4
# 
#                 1405   read_single_byte_seq_single_Htransfer_okay task in generator
# Scoreboard read
# Temp address = 3ccab
# Read data from DUT 00000000
# Data from TB memory 00000000
# 
#                 1410   write_single_halfword_seq_single_Htransfer_okay task in generator
# Scoreboard check...
# Input Address: a983f
# Input Write Data: 276b977c
# Data Stored: 276b977c
# 
#                 1415   read_single_word_seq_single_Htransfer_okay task in generator
# Scoreboard read
# Temp address = aa12a
# Read data from DUT 00000000
# Data from TB memory 00000000
# 
#                 1420   write_single_byte_seq_single_Htransfer_error task in generator
# Scoreboard check...
# Input Address: 495ca
# Input Write Data: 1d7b0ee1
# Data Stored: 1d7b0ee1
# 
#                 1425   read_incr_halfword_seq_incr_Hburst_okay task in generator
# Scoreboard read
# Temp address = 22e90
# Read data from DUT 00000000
# Data from TB memory 00000000
# 
#                 1430   write_incr_word_seq_incr_Hburst_okay task in generator
# Scoreboard check...
# Input Address: 3096b
# Input Write Data: 1f25dd55
# Data Stored: 1f25dd55
# 
#                 1435   read_wrap4_byte_seq_wrap4_Hburst_okay task in generator
# Scoreboard read
# Temp address = 8e782
# Read data from DUT 00000000
# Data from TB memory 00000000
# 
#                 1440   write_wrap4_halfword_seq_wrap4_Hburst_okay task in generator
# Scoreboard check...
# Input Address: c23a5
# Input Write Data: f11e391e
# Data Stored: f11e391e
# 
#                 1445   read_wrap4_word_seq_wrap4_Hburst_okay task in generator
# Scoreboard read
# Temp address = 4687f
# Read data from DUT 00000000
# Data from TB memory 00000000
# 
#                 1450   write_incr4_byte_seq_incr4_Hburst_okay task in generator
# Scoreboard check...
# Input Address: 3eef0
# Input Write Data: f4a8ae80
# Data Stored: f4a8ae80
# 
#                 1455   read_incr4_halfword_seq_incr4_Hburst_okay task in generator
# Scoreboard read
# Temp address = ce04d
# Read data from DUT 00000000
# Data from TB memory 00000000
# 
#                 1460   write_incr4_word_seq_incr4_Hburst_okay task in generator
# Scoreboard check...
# Input Address: b9552
# Input Write Data: fda61d23
# Data Stored: fda61d23
# 
#                 1465   read_single_byte_nonseq_single_Htransfer_reset task in generator
# Scoreboard read
# Temp address = 372b4
# Read data from DUT 00000000
# Data from TB memory 00000000
# 
#                 1470   write_single_halfword_nonseq_single_Htransfer_reset task in generator
# Scoreboard check...
# Input Address: 4f9d2
# Input Write Data: 580c7b7f
# Data Stored: 580c7b7f
# 
#                 1475   read_single_word_nonseq_single_Htransfer_reset task in generator
# Scoreboard read
# Temp address = 08f30
# Read data from DUT 00000000
# Data from TB memory 00000000
# 
#                 1480   write_incr_byte_nonseq_incr_Hburst_reset task in generator
# Scoreboard check...
# Input Address: aa7f9
# Input Write Data: 49393011
# Data Stored: 49393011
# 
#                 1485   read_incr_halfword_nonseq_incr_Hburst_reset task in generator
# Scoreboard read
# Temp address = 4b8e4
# Read data from DUT 00000000
# Data from TB memory 00000000
# 
#                 1490   write_incr_word_nonseq_incr_Hburst_reset task in generator
# Scoreboard check...
# Input Address: b92b5
# Input Write Data: ad07503a
# Data Stored: ad07503a
# 
#                 1495   read_wrap4_byte_nonseq_wrap4_Hburst_reset task in generator
# Scoreboard read
# Temp address = 21445
# Read data from DUT 00000000
# Data from TB memory 00000000
# 
#                 1500   write_wrap4_halfword_nonseq_wrap4_Hburst_reset task in generator
# Scoreboard check...
# Input Address: 2b2d8
# Input Write Data: 58a5dcfc
# Data Stored: 58a5dcfc
# 
#                 1505   read_wrap4_word_nonseq_wrap4_Hburst_reset task in generator
# Scoreboard read
# Temp address = 52008
# Read data from DUT 00000000
# Data from TB memory 00000000
# 
#                 1510   write_incr4_byte_nonseq_incr4_Hburst_reset task in generator
# Scoreboard check...
# Input Address: 2825a
# Input Write Data: a32164ea
# Data Stored: a32164ea
# 
#                 1515   read_incr4_halfword_nonseq_incr4_Hburst_reset task in generator
# Scoreboard read
# Temp address = f7e91
# Read data from DUT 00000000
# Data from TB memory 00000000
# 
#                 1520   write_incr4_word_nonseq_incr4_Hburst_reset task in generator
# Scoreboard check...
# Input Address: 7db6b
# Input Write Data: bc5147b5
# Data Stored: bc5147b5
# 
#                 1525   write_incr4_word_idle_incr4_Hburst_reset task in generator
# Scoreboard check...
# Input Address: 79dd6
# Input Write Data: 3aed43ea
# Data Stored: 3aed43ea
# 
#                 1530   write_incr4_word_busy_incr4_Hburst_reset task in generator
# Scoreboard check...
# Input Address: b5ae2
# Input Write Data: 7ee6f920
# Data Stored: 7ee6f920
# 
#                 1535   write_single_byte_idle_single_Htransfer_error task in generator
# Scoreboard check...
# Input Address: e84ed
# Input Write Data: 79c7d276
# Data Stored: 79c7d276
# 
# in test repeat
#                 1540   write_single_halfword_nonseq_single_Htransfer_okay task in generator
# Scoreboard check...
# Input Address: bb7f1
# Input Write Data: 448c0e2e
# Data Stored: 448c0e2e
# 
#                 1545   read_single_word_nonseq_single_Htransfer_okay task in generator
# Scoreboard read
# Temp address = 6edfc
# Read data from DUT 00000000
# Data from TB memory 00000000
# 
#                 1550   write_single_byte_nonseq_single_Htransfer_error task in generator
# Scoreboard check...
# Input Address: ed9d3
# Input Write Data: 520876e4
# Data Stored: 520876e4
# 
#                 1555   read_incr_halfword_nonseq_incr_Hburst_okay task in generator
# Scoreboard read
# Temp address = 53b0d
# Read data from DUT 00000000
# Data from TB memory 00000000
# 
#                 1560   write_incr_word_nonseq_incr_Hburst_okay task in generator
# Scoreboard check...
# Input Address: 96613
# Input Write Data: 81749d92
# Data Stored: 81749d92
# 
#                 1565   read_wrap4_byte_nonseq_wrap4_Hburst_okay task in generator
# Scoreboard read
# Temp address = a582c
# Read data from DUT 00000000
# Data from TB memory 00000000
# 
#                 1570   write_wrap4_halfword_nonseq_wrap4_Hburst_okay task in generator
# Scoreboard check...
# Input Address: 54280
# Input Write Data: cc635e9a
# Data Stored: cc635e9a
# 
#                 1575   read_wrap4_word_nonseq_wrap4_Hburst_okay task in generator
# Scoreboard read
# Temp address = 16dce
# Read data from DUT 00000000
# Data from TB memory 00000000
# 
#                 1580   write_incr4_byte_nonseq_incr4_Hburst_okay task in generator
# Scoreboard check...
# Input Address: 86615
# Input Write Data: ca565a77
# Data Stored: ca565a77
# 
#                 1585   read_incr4_halfword_nonseq_incr4_Hburst_okay task in generator
# Scoreboard read
# Temp address = afd38
# Read data from DUT 00000000
# Data from TB memory 00000000
# 
#                 1590   write_incr4_word_nonseq_incr4_Hburst_okay task in generator
# Scoreboard check...
# Input Address: b8e02
# Input Write Data: 4ca42489
# Data Stored: 4ca42489
# 
#                 1595   read_wrap8_byte_nonseq_wrap8_Hburst_okay task in generator
# Scoreboard read
# Temp address = 46f48
# Read data from DUT 00000000
# Data from TB memory 00000000
# 
#                 1600   write_wrap8_halfword_nonseq_wrap8_Hburst_okay task in generator
# Scoreboard check...
# Input Address: 3d6dd
# Input Write Data: 9776509f
# Data Stored: 9776509f
# 
#                 1605   read_wrap8_word_nonseq_wrap8_Hburst_okay task in generator
# Scoreboard read
# Temp address = e1734
# Read data from DUT 00000000
# Data from TB memory 00000000
# 
# in env
#                 1610   write_incr8_byte_nonseq_incr8_Hburst_okay task in generator
# Scoreboard check...
# Input Address: f3600
# Input Write Data: fe7c6468
# Data Stored: fe7c6468
# 
#                 1615   read_incr8_halfword_nonseq_incr8_Hburst_okay task in generator
# Scoreboard read
# Temp address = 08ad2
# Read data from DUT 00000000
# Data from TB memory 00000000
# 
#                 1620   write_incr8_word_nonseq_incr8_Hburst_okay task in generator
# Scoreboard check...
# Input Address: 043b2
# Input Write Data: f8a00ce7
# Data Stored: f8a00ce7
# 
#                 1625   read_single_byte_seq_single_Htransfer_okay task in generator
# Scoreboard read
# Temp address = 11dc2
# Read data from DUT 00000000
# Data from TB memory 00000000
# 
#                 1630   write_single_halfword_seq_single_Htransfer_okay task in generator
# Scoreboard check...
# Input Address: 26f94
# Input Write Data: f5634a8a
# Data Stored: f5634a8a
# 
#                 1635   read_single_word_seq_single_Htransfer_okay task in generator
# Scoreboard read
# Temp address = b67a1
# Read data from DUT 00000000
# Data from TB memory 00000000
# 
#                 1640   write_single_byte_seq_single_Htransfer_error task in generator
# Scoreboard check...
# Input Address: eee48
# Input Write Data: 058a2be8
# Data Stored: 058a2be8
# 
#                 1645   read_incr_halfword_seq_incr_Hburst_okay task in generator
# Scoreboard read
# Temp address = 01ff3
# Read data from DUT 00000000
# Data from TB memory 00000000
# 
#                 1650   write_incr_word_seq_incr_Hburst_okay task in generator
# Scoreboard check...
# Input Address: cb13c
# Input Write Data: c44e1a49
# Data Stored: c44e1a49
# 
#                 1655   read_wrap4_byte_seq_wrap4_Hburst_okay task in generator
# Scoreboard read
# Temp address = df46e
# Read data from DUT 00000000
# Data from TB memory 00000000
# 
#                 1660   write_wrap4_halfword_seq_wrap4_Hburst_okay task in generator
# Scoreboard check...
# Input Address: cc8cb
# Input Write Data: 9a71a03a
# Data Stored: 9a71a03a
# 
#                 1665   read_wrap4_word_seq_wrap4_Hburst_okay task in generator
# Scoreboard read
# Temp address = 763b8
# Read data from DUT 00000000
# Data from TB memory 00000000
# 
#                 1670   write_incr4_byte_seq_incr4_Hburst_okay task in generator
# Scoreboard check...
# Input Address: da9a2
# Input Write Data: 4dd2c830
# Data Stored: 4dd2c830
# 
#                 1675   read_incr4_halfword_seq_incr4_Hburst_okay task in generator
# Scoreboard read
# Temp address = bd9bf
# Read data from DUT 00000000
# Data from TB memory 00000000
# 
#                 1680   write_incr4_word_seq_incr4_Hburst_okay task in generator
# Scoreboard check...
# Input Address: 8b50a
# Input Write Data: e580ea4d
# Data Stored: e580ea4d
# 
#                 1685   read_single_byte_nonseq_single_Htransfer_reset task in generator
# Scoreboard read
# Temp address = 438ad
# Read data from DUT 00000000
# Data from TB memory 00000000
# 
#                 1690   write_single_halfword_nonseq_single_Htransfer_reset task in generator
# Scoreboard check...
# Input Address: cac40
# Input Write Data: 345d6329
# Data Stored: 345d6329
# 
#                 1695   read_single_word_nonseq_single_Htransfer_reset task in generator
# Scoreboard read
# Temp address = 48a36
# Read data from DUT 00000000
# Data from TB memory 00000000
# 
#                 1700   write_incr_byte_nonseq_incr_Hburst_reset task in generator
# Scoreboard check...
# Input Address: 0ba87
# Input Write Data: a3464854
# Data Stored: a3464854
# 
#                 1705   read_incr_halfword_nonseq_incr_Hburst_reset task in generator
# Scoreboard read
# Temp address = 3e098
# Read data from DUT 00000000
# Data from TB memory 00000000
# 
#                 1710   write_incr_word_nonseq_incr_Hburst_reset task in generator
# Scoreboard check...
# Input Address: 57eed
# Input Write Data: 13aa884d
# Data Stored: 13aa884d
# 
#                 1715   read_wrap4_byte_nonseq_wrap4_Hburst_reset task in generator
# Scoreboard read
# Temp address = b01d1
# Read data from DUT 00000000
# Data from TB memory 00000000
# 
#                 1720   write_wrap4_halfword_nonseq_wrap4_Hburst_reset task in generator
# Scoreboard check...
# Input Address: d23cf
# Input Write Data: 58991f08
# Data Stored: 58991f08
# 
#                 1725   read_wrap4_word_nonseq_wrap4_Hburst_reset task in generator
# Scoreboard read
# Temp address = f1010
# Read data from DUT 00000000
# Data from TB memory 00000000
# 
#                 1730   write_incr4_byte_nonseq_incr4_Hburst_reset task in generator
# Scoreboard check...
# Input Address: 693a0
# Input Write Data: 707f3245
# Data Stored: 707f3245
# 
#                 1735   read_incr4_halfword_nonseq_incr4_Hburst_reset task in generator
# Scoreboard read
# Temp address = 32f64
# Read data from DUT 00000000
# Data from TB memory 00000000
# 
#                 1740   write_incr4_word_nonseq_incr4_Hburst_reset task in generator
# Scoreboard check...
# Input Address: 2da62
# Input Write Data: f2e7edb9
# Data Stored: f2e7edb9
# 
#                 1745   write_incr4_word_idle_incr4_Hburst_reset task in generator
# Scoreboard check...
# Input Address: 36474
# Input Write Data: 7407adae
# Data Stored: 7407adae
# 
#                 1750   write_incr4_word_busy_incr4_Hburst_reset task in generator
# Scoreboard check...
# Input Address: e01df
# Input Write Data: 32dc93b8
# Data Stored: 32dc93b8
# 
#                 1755   write_single_byte_idle_single_Htransfer_error task in generator
# Scoreboard check...
# Input Address: 7f682
# Input Write Data: e36e7fcf
# Data Stored: e36e7fcf
# 
# in test repeat
#                 1760   write_single_halfword_nonseq_single_Htransfer_okay task in generator
# Scoreboard check...
# Input Address: 62c0e
# Input Write Data: d61a6ddf
# Data Stored: d61a6ddf
# 
#                 1765   read_single_word_nonseq_single_Htransfer_okay task in generator
# Scoreboard read
# Temp address = f7513
# Read data from DUT 00000000
# Data from TB memory 00000000
# 
#                 1770   write_single_byte_nonseq_single_Htransfer_error task in generator
# Scoreboard check...
# Input Address: d86dc
# Input Write Data: 92c4f9e9
# Data Stored: 92c4f9e9
# 
#                 1775   read_incr_halfword_nonseq_incr_Hburst_okay task in generator
# Scoreboard read
# Temp address = 11753
# Read data from DUT 00000000
# Data from TB memory 00000000
# 
#                 1780   write_incr_word_nonseq_incr_Hburst_okay task in generator
# Scoreboard check...
# Input Address: 666c6
# Input Write Data: 02a49704
# Data Stored: 02a49704
# 
#                 1785   read_wrap4_byte_nonseq_wrap4_Hburst_okay task in generator
# Scoreboard read
# Temp address = 95782
# Read data from DUT 00000000
# Data from TB memory 00000000
# 
#                 1790   write_wrap4_halfword_nonseq_wrap4_Hburst_okay task in generator
# Scoreboard check...
# Input Address: 77e77
# Input Write Data: c8add72d
# Data Stored: c8add72d
# 
#                 1795   read_wrap4_word_nonseq_wrap4_Hburst_okay task in generator
# Scoreboard read
# Temp address = 777f7
# Read data from DUT 00000000
# Data from TB memory 00000000
# 
#                 1800   write_incr4_byte_nonseq_incr4_Hburst_okay task in generator
# Scoreboard check...
# Input Address: 6f2ba
# Input Write Data: 3fbe7b9f
# Data Stored: 3fbe7b9f
# 
#                 1805   read_incr4_halfword_nonseq_incr4_Hburst_okay task in generator
# Scoreboard read
# Temp address = c5e01
# Read data from DUT 00000000
# Data from TB memory 00000000
# 
#                 1810   write_incr4_word_nonseq_incr4_Hburst_okay task in generator
# Scoreboard check...
# Input Address: 5fb4a
# Input Write Data: 123802a3
# Data Stored: 123802a3
# 
#                 1815   read_wrap8_byte_nonseq_wrap8_Hburst_okay task in generator
# Scoreboard read
# Temp address = 9447f
# Read data from DUT 00000000
# Data from TB memory 00000000
# 
#                 1820   write_wrap8_halfword_nonseq_wrap8_Hburst_okay task in generator
# Scoreboard check...
# Input Address: accd7
# Input Write Data: 43a45dc6
# Data Stored: 43a45dc6
# 
#                 1825   read_wrap8_word_nonseq_wrap8_Hburst_okay task in generator
# Scoreboard read
# Temp address = ecb36
# Read data from DUT 00000000
# Data from TB memory 00000000
# 
# in env
#                 1830   write_incr8_byte_nonseq_incr8_Hburst_okay task in generator
# Scoreboard check...
# Input Address: d0af6
# Input Write Data: d54a14e4
# Data Stored: d54a14e4
# 
#                 1835   read_incr8_halfword_nonseq_incr8_Hburst_okay task in generator
# Scoreboard read
# Temp address = 047fb
# Read data from DUT 00000000
# Data from TB memory 00000000
# 
#                 1840   write_incr8_word_nonseq_incr8_Hburst_okay task in generator
# Scoreboard check...
# Input Address: cc3b4
# Input Write Data: af98e3a7
# Data Stored: af98e3a7
# 
#                 1845   read_single_byte_seq_single_Htransfer_okay task in generator
# Scoreboard read
# Temp address = 2070c
# Read data from DUT 00000000
# Data from TB memory 00000000
# 
#                 1850   write_single_halfword_seq_single_Htransfer_okay task in generator
# Scoreboard check...
# Input Address: e1d34
# Input Write Data: 872c8786
# Data Stored: 872c8786
# 
#                 1855   read_single_word_seq_single_Htransfer_okay task in generator
# Scoreboard read
# Temp address = 59a34
# Read data from DUT 00000000
# Data from TB memory 00000000
# 
#                 1860   write_single_byte_seq_single_Htransfer_error task in generator
# Scoreboard check...
# Input Address: edf92
# Input Write Data: 50a06e2d
# Data Stored: 50a06e2d
# 
#                 1865   read_incr_halfword_seq_incr_Hburst_okay task in generator
# Scoreboard read
# Temp address = e1dbd
# Read data from DUT 00000000
# Data from TB memory 00000000
# 
#                 1870   write_incr_word_seq_incr_Hburst_okay task in generator
# Scoreboard check...
# Input Address: ad035
# Input Write Data: f2b7ec10
# Data Stored: f2b7ec10
# 
#                 1875   read_wrap4_byte_seq_wrap4_Hburst_okay task in generator
# Scoreboard read
# Temp address = c91ae
# Read data from DUT 00000000
# Data from TB memory 00000000
# 
#                 1880   write_wrap4_halfword_seq_wrap4_Hburst_okay task in generator
# Scoreboard check...
# Input Address: 5d0b4
# Input Write Data: b594c350
# Data Stored: b594c350
# 
#                 1885   read_wrap4_word_seq_wrap4_Hburst_okay task in generator
# Scoreboard read
# Temp address = 1b7a8
# Read data from DUT 00000000
# Data from TB memory 00000000
# 
#                 1890   write_incr4_byte_seq_incr4_Hburst_okay task in generator
# Scoreboard check...
# Input Address: c2c68
# Input Write Data: bac60c8b
# Data Stored: bac60c8b
# 
#                 1895   read_incr4_halfword_seq_incr4_Hburst_okay task in generator
# Scoreboard read
# Temp address = f7996
# Read data from DUT 00000000
# Data from TB memory 00000000
# 
#                 1900   write_incr4_word_seq_incr4_Hburst_okay task in generator
# Scoreboard check...
# Input Address: 375ab
# Input Write Data: 86401398
# Data Stored: 86401398
# 
#                 1905   read_single_byte_nonseq_single_Htransfer_reset task in generator
# Scoreboard read
# Temp address = e5e3b
# Read data from DUT 00000000
# Data from TB memory 00000000
# 
#                 1910   write_single_halfword_nonseq_single_Htransfer_reset task in generator
# Scoreboard check...
# Input Address: a54a0
# Input Write Data: 08f160b3
# Data Stored: 08f160b3
# 
#                 1915   read_single_word_nonseq_single_Htransfer_reset task in generator
# Scoreboard read
# Temp address = 034b5
# Read data from DUT 00000000
# Data from TB memory 00000000
# 
#                 1920   write_incr_byte_nonseq_incr_Hburst_reset task in generator
# Scoreboard check...
# Input Address: 59011
# Input Write Data: e94ad9c5
# Data Stored: e94ad9c5
# 
#                 1925   read_incr_halfword_nonseq_incr_Hburst_reset task in generator
# Scoreboard read
# Temp address = c281d
# Read data from DUT 00000000
# Data from TB memory 00000000
# 
#                 1930   write_incr_word_nonseq_incr_Hburst_reset task in generator
# Scoreboard check...
# Input Address: 03634
# Input Write Data: c2a1fba4
# Data Stored: c2a1fba4
# 
#                 1935   read_wrap4_byte_nonseq_wrap4_Hburst_reset task in generator
# Scoreboard read
# Temp address = 085b8
# Read data from DUT 00000000
# Data from TB memory 00000000
# 
#                 1940   write_wrap4_halfword_nonseq_wrap4_Hburst_reset task in generator
# Scoreboard check...
# Input Address: 7ac30
# Input Write Data: 1954f805
# Data Stored: 1954f805
# 
#                 1945   read_wrap4_word_nonseq_wrap4_Hburst_reset task in generator
# Scoreboard read
# Temp address = ee818
# Read data from DUT 00000000
# Data from TB memory 00000000
# 
#                 1950   write_incr4_byte_nonseq_incr4_Hburst_reset task in generator
# Scoreboard check...
# Input Address: 09aa7
# Input Write Data: afe97fc9
# Data Stored: afe97fc9
# 
#                 1955   read_incr4_halfword_nonseq_incr4_Hburst_reset task in generator
# Scoreboard read
# Temp address = 586d9
# Read data from DUT 00000000
# Data from TB memory 00000000
# 
#                 1960   write_incr4_word_nonseq_incr4_Hburst_reset task in generator
# Scoreboard check...
# Input Address: 96f5b
# Input Write Data: f4f0e72e
# Data Stored: f4f0e72e
# 
#                 1965   write_incr4_word_idle_incr4_Hburst_reset task in generator
# Scoreboard check...
# Input Address: 4e187
# Input Write Data: e7fe32b8
# Data Stored: e7fe32b8
# 
#                 1970   write_incr4_word_busy_incr4_Hburst_reset task in generator
# Scoreboard check...
# Input Address: e1c83
# Input Write Data: 68931d25
# Data Stored: 68931d25
# 
#                 1975   write_single_byte_idle_single_Htransfer_error task in generator
# Scoreboard check...
# Input Address: 0addd
# Input Write Data: d0508b84
# Data Stored: d0508b84
# 
# in test repeat
#                 1980   write_single_halfword_nonseq_single_Htransfer_okay task in generator
# Scoreboard check...
# Input Address: d2b84
# Input Write Data: 57cbe707
# Data Stored: 57cbe707
# 
#                 1985   read_single_word_nonseq_single_Htransfer_okay task in generator
# Scoreboard read
# Temp address = 1d567
# Read data from DUT 00000000
# Data from TB memory 00000000
# 
#                 1990   write_single_byte_nonseq_single_Htransfer_error task in generator
# Scoreboard check...
# Input Address: 48b6a
# Input Write Data: d1e08862
# Data Stored: d1e08862
# 
#                 1995   read_incr_halfword_nonseq_incr_Hburst_okay task in generator
# Scoreboard read
# Temp address = 7ff07
# Read data from DUT 00000000
# Data from TB memory 00000000
# 
#                 2000   write_incr_word_nonseq_incr_Hburst_okay task in generator
# Scoreboard check...
# Input Address: 53b93
# Input Write Data: 25ab3fb5
# Data Stored: 25ab3fb5
# 
#                 2005   read_wrap4_byte_nonseq_wrap4_Hburst_okay task in generator
# Scoreboard read
# Temp address = b3820
# Read data from DUT 00000000
# Data from TB memory 00000000
# 
#                 2010   write_wrap4_halfword_nonseq_wrap4_Hburst_okay task in generator
# Scoreboard check...
# Input Address: 8d71f
# Input Write Data: db3a7c33
# Data Stored: db3a7c33
# 
#                 2015   read_wrap4_word_nonseq_wrap4_Hburst_okay task in generator
# Scoreboard read
# Temp address = cd2ef
# Read data from DUT 00000000
# Data from TB memory 00000000
# 
#                 2020   write_incr4_byte_nonseq_incr4_Hburst_okay task in generator
# Scoreboard check...
# Input Address: 0a78b
# Input Write Data: b12bfb01
# Data Stored: b12bfb01
# 
#                 2025   read_incr4_halfword_nonseq_incr4_Hburst_okay task in generator
# Scoreboard read
# Temp address = 69251
# Read data from DUT 00000000
# Data from TB memory 00000000
# 
#                 2030   write_incr4_word_nonseq_incr4_Hburst_okay task in generator
# Scoreboard check...
# Input Address: b945a
# Input Write Data: 1fdf5011
# Data Stored: 1fdf5011
# 
#                 2035   read_wrap8_byte_nonseq_wrap8_Hburst_okay task in generator
# Scoreboard read
# Temp address = f4d8f
# Read data from DUT 00000000
# Data from TB memory 00000000
# 
#                 2040   write_wrap8_halfword_nonseq_wrap8_Hburst_okay task in generator
# Scoreboard check...
# Input Address: 20de0
# Input Write Data: 8c7baf8c
# Data Stored: 8c7baf8c
# 
#                 2045   read_wrap8_word_nonseq_wrap8_Hburst_okay task in generator
# Scoreboard read
# Temp address = 2a567
# Read data from DUT 00000000
# Data from TB memory 00000000
# 
# in env
#                 2050   write_incr8_byte_nonseq_incr8_Hburst_okay task in generator
# Scoreboard check...
# Input Address: b5a5e
# Input Write Data: 2a4ba2ad
# Data Stored: 2a4ba2ad
# 
#                 2055   read_incr8_halfword_nonseq_incr8_Hburst_okay task in generator
# Scoreboard read
# Temp address = 0121f
# Read data from DUT 00000000
# Data from TB memory 00000000
# 
#                 2060   write_incr8_word_nonseq_incr8_Hburst_okay task in generator
# Scoreboard check...
# Input Address: 9c39f
# Input Write Data: c14083d0
# Data Stored: c14083d0
# 
#                 2065   read_single_byte_seq_single_Htransfer_okay task in generator
# Scoreboard read
# Temp address = 927de
# Read data from DUT 00000000
# Data from TB memory 00000000
# 
#                 2070   write_single_halfword_seq_single_Htransfer_okay task in generator
# Scoreboard check...
# Input Address: 5774a
# Input Write Data: 13a38d70
# Data Stored: 13a38d70
# 
#                 2075   read_single_word_seq_single_Htransfer_okay task in generator
# Scoreboard read
# Temp address = 29b7b
# Read data from DUT 00000000
# Data from TB memory 00000000
# 
#                 2080   write_single_byte_seq_single_Htransfer_error task in generator
# Scoreboard check...
# Input Address: e6238
# Input Write Data: ada145ed
# Data Stored: ada145ed
# 
#                 2085   read_incr_halfword_seq_incr_Hburst_okay task in generator
# Scoreboard read
# Temp address = 7863d
# Read data from DUT 00000000
# Data from TB memory 00000000
# 
#                 2090   write_incr_word_seq_incr_Hburst_okay task in generator
# Scoreboard check...
# Input Address: 1cfbe
# Input Write Data: 3ef9b3bc
# Data Stored: 3ef9b3bc
# 
#                 2095   read_wrap4_byte_seq_wrap4_Hburst_okay task in generator
# Scoreboard read
# Temp address = e7349
# Read data from DUT 00000000
# Data from TB memory 00000000
# 
#                 2100   write_wrap4_halfword_seq_wrap4_Hburst_okay task in generator
# Scoreboard check...
# Input Address: c1330
# Input Write Data: f581dd50
# Data Stored: f581dd50
# 
#                 2105   read_wrap4_word_seq_wrap4_Hburst_okay task in generator
# Scoreboard read
# Temp address = 648e3
# Read data from DUT 00000000
# Data from TB memory 00000000
# 
#                 2110   write_incr4_byte_seq_incr4_Hburst_okay task in generator
# Scoreboard check...
# Input Address: ce69c
# Input Write Data: 39cd06ef
# Data Stored: 39cd06ef
# 
#                 2115   read_incr4_halfword_seq_incr4_Hburst_okay task in generator
# Scoreboard read
# Temp address = 61db0
# Read data from DUT 00000000
# Data from TB memory 00000000
# 
#                 2120   write_incr4_word_seq_incr4_Hburst_okay task in generator
# Scoreboard check...
# Input Address: 574d4
# Input Write Data: c9da4760
# Data Stored: c9da4760
# 
#                 2125   read_single_byte_nonseq_single_Htransfer_reset task in generator
# Scoreboard read
# Temp address = 46661
# Read data from DUT 00000000
# Data from TB memory 00000000
# 
#                 2130   write_single_halfword_nonseq_single_Htransfer_reset task in generator
# Scoreboard check...
# Input Address: 343dc
# Input Write Data: cb5434d0
# Data Stored: cb5434d0
# 
#                 2135   read_single_word_nonseq_single_Htransfer_reset task in generator
# Scoreboard read
# Temp address = dfd4a
# Read data from DUT 00000000
# Data from TB memory 00000000
# 
#                 2140   write_incr_byte_nonseq_incr_Hburst_reset task in generator
# Scoreboard check...
# Input Address: f492a
# Input Write Data: e2f9bc57
# Data Stored: e2f9bc57
# 
#                 2145   read_incr_halfword_nonseq_incr_Hburst_reset task in generator
# Scoreboard read
# Temp address = 34d2c
# Read data from DUT 00000000
# Data from TB memory 00000000
# 
#                 2150   write_incr_word_nonseq_incr_Hburst_reset task in generator
# Scoreboard check...
# Input Address: d17cf
# Input Write Data: 391990a1
# Data Stored: 391990a1
# 
#                 2155   read_wrap4_byte_nonseq_wrap4_Hburst_reset task in generator
# Scoreboard read
# Temp address = 4a126
# Read data from DUT 00000000
# Data from TB memory 00000000
# 
#                 2160   write_wrap4_halfword_nonseq_wrap4_Hburst_reset task in generator
# Scoreboard check...
# Input Address: 8d18d
# Input Write Data: aa94b30b
# Data Stored: aa94b30b
# 
#                 2165   read_wrap4_word_nonseq_wrap4_Hburst_reset task in generator
# Scoreboard read
# Temp address = 47311
# Read data from DUT 00000000
# Data from TB memory 00000000
# 
#                 2170   write_incr4_byte_nonseq_incr4_Hburst_reset task in generator
# Scoreboard check...
# Input Address: cafd1
# Input Write Data: 478744dc
# Data Stored: 478744dc
# 
#                 2175   read_incr4_halfword_nonseq_incr4_Hburst_reset task in generator
# Scoreboard read
# Temp address = b2576
# Read data from DUT 00000000
# Data from TB memory 00000000
# 
#                 2180   write_incr4_word_nonseq_incr4_Hburst_reset task in generator
# Scoreboard check...
# Input Address: 400bf
# Input Write Data: 15aa1b28
# Data Stored: 15aa1b28
# 
#                 2185   write_incr4_word_idle_incr4_Hburst_reset task in generator
# Scoreboard check...
# Input Address: 9aa4c
# Input Write Data: 52766310
# Data Stored: 52766310
# 
#                 2190   write_incr4_word_busy_incr4_Hburst_reset task in generator
# Scoreboard check...
# Input Address: 1d05a
# Input Write Data: e3f58fef
# Data Stored: e3f58fef
# 
#                 2195   write_single_byte_idle_single_Htransfer_error task in generator
# Scoreboard check...
# Input Address: 2ce9b
# Input Write Data: 0e4a565f
# Data Stored: 0e4a565f
# 
# in test repeat
#                 2200   write_single_halfword_nonseq_single_Htransfer_okay task in generator
# Scoreboard check...
# Input Address: d25f3
# Input Write Data: c77009f9
# Data Stored: c77009f9
# 
#                 2205   read_single_word_nonseq_single_Htransfer_okay task in generator
# Scoreboard read
# Temp address = 72419
# Read data from DUT 00000000
# Data from TB memory 00000000
# 
#                 2210   write_single_byte_nonseq_single_Htransfer_error task in generator
# Scoreboard check...
# Input Address: 0ee64
# Input Write Data: 5d3cbed6
# Data Stored: 5d3cbed6
# 
#                 2215   read_incr_halfword_nonseq_incr_Hburst_okay task in generator
# Scoreboard read
# Temp address = f6bba
# Read data from DUT 00000000
# Data from TB memory 00000000
# 
#                 2220   write_incr_word_nonseq_incr_Hburst_okay task in generator
# Scoreboard check...
# Input Address: 10c9a
# Input Write Data: fbb0b1ad
# Data Stored: fbb0b1ad
# 
#                 2225   read_wrap4_byte_nonseq_wrap4_Hburst_okay task in generator
# Scoreboard read
# Temp address = d3b01
# Read data from DUT 00000000
# Data from TB memory 00000000
# 
#                 2230   write_wrap4_halfword_nonseq_wrap4_Hburst_okay task in generator
# Scoreboard check...
# Input Address: e12a1
# Input Write Data: d34ecdb8
# Data Stored: d34ecdb8
# 
#                 2235   read_wrap4_word_nonseq_wrap4_Hburst_okay task in generator
# Scoreboard read
# Temp address = 3b1c5
# Read data from DUT 00000000
# Data from TB memory 00000000
# 
#                 2240   write_incr4_byte_nonseq_incr4_Hburst_okay task in generator
# Scoreboard check...
# Input Address: e10b7
# Input Write Data: 0aeff38c
# Data Stored: 0aeff38c
# 
#                 2245   read_incr4_halfword_nonseq_incr4_Hburst_okay task in generator
# Scoreboard read
# Temp address = 0f691
# Read data from DUT 00000000
# Data from TB memory 00000000
# 
#                 2250   write_incr4_word_nonseq_incr4_Hburst_okay task in generator
# Scoreboard check...
# Input Address: 1eb99
# Input Write Data: 3e103565
# Data Stored: 3e103565
# 
#                 2255   read_wrap8_byte_nonseq_wrap8_Hburst_okay task in generator
# Scoreboard read
# Temp address = a6aac
# Read data from DUT 00000000
# Data from TB memory 00000000
# 
#                 2260   write_wrap8_halfword_nonseq_wrap8_Hburst_okay task in generator
# Scoreboard check...
# Input Address: 08550
# Input Write Data: a34caad5
# Data Stored: a34caad5
# 
#                 2265   read_wrap8_word_nonseq_wrap8_Hburst_okay task in generator
# Scoreboard read
# Temp address = 31d9b
# Read data from DUT 00000000
# Data from TB memory 00000000
# 
# in env
#                 2270   write_incr8_byte_nonseq_incr8_Hburst_okay task in generator
# Scoreboard check...
# Input Address: aa3a5
# Input Write Data: 347b9df4
# Data Stored: 347b9df4
# 
#                 2275   read_incr8_halfword_nonseq_incr8_Hburst_okay task in generator
# Scoreboard read
# Temp address = eb19b
# Read data from DUT 00000000
# Data from TB memory 00000000
# 
#                 2280   write_incr8_word_nonseq_incr8_Hburst_okay task in generator
# Scoreboard check...
# Input Address: cc740
# Input Write Data: 5862f90c
# Data Stored: 5862f90c
# 
#                 2285   read_single_byte_seq_single_Htransfer_okay task in generator
# Scoreboard read
# Temp address = 313ea
# Read data from DUT 00000000
# Data from TB memory 00000000
# 
#                 2290   write_single_halfword_seq_single_Htransfer_okay task in generator
# Scoreboard check...
# Input Address: 49a32
# Input Write Data: 88ab221c
# Data Stored: 88ab221c
# 
#                 2295   read_single_word_seq_single_Htransfer_okay task in generator
# Scoreboard read
# Temp address = 145a4
# Read data from DUT 00000000
# Data from TB memory 00000000
# 
#                 2300   write_single_byte_seq_single_Htransfer_error task in generator
# Scoreboard check...
# Input Address: 51bb1
# Input Write Data: bd9fe124
# Data Stored: bd9fe124
# 
#                 2305   read_incr_halfword_seq_incr_Hburst_okay task in generator
# Scoreboard read
# Temp address = 5515f
# Read data from DUT 00000000
# Data from TB memory 00000000
# 
#                 2310   write_incr_word_seq_incr_Hburst_okay task in generator
# Scoreboard check...
# Input Address: 7b9ff
# Input Write Data: 8311d472
# Data Stored: 8311d472
# 
#                 2315   read_wrap4_byte_seq_wrap4_Hburst_okay task in generator
# Scoreboard read
# Temp address = 16945
# Read data from DUT 00000000
# Data from TB memory 00000000
# 
#                 2320   write_wrap4_halfword_seq_wrap4_Hburst_okay task in generator
# Scoreboard check...
# Input Address: fed3f
# Input Write Data: 30384a46
# Data Stored: 30384a46
# 
#                 2325   read_wrap4_word_seq_wrap4_Hburst_okay task in generator
# Scoreboard read
# Temp address = c601a
# Read data from DUT 00000000
# Data from TB memory 00000000
# 
#                 2330   write_incr4_byte_seq_incr4_Hburst_okay task in generator
# Scoreboard check...
# Input Address: f64ec
# Input Write Data: ff6215f2
# Data Stored: ff6215f2
# 
#                 2335   read_incr4_halfword_seq_incr4_Hburst_okay task in generator
# Scoreboard read
# Temp address = d6bdc
# Read data from DUT 00000000
# Data from TB memory 00000000
# 
#                 2340   write_incr4_word_seq_incr4_Hburst_okay task in generator
# Scoreboard check...
# Input Address: 35100
# Input Write Data: 0b75fc7f
# Data Stored: 0b75fc7f
# 
#                 2345   read_single_byte_nonseq_single_Htransfer_reset task in generator
# Scoreboard read
# Temp address = 67488
# Read data from DUT 00000000
# Data from TB memory 00000000
# 
#                 2350   write_single_halfword_nonseq_single_Htransfer_reset task in generator
# Scoreboard check...
# Input Address: 8d0f3
# Input Write Data: 14927d7d
# Data Stored: 14927d7d
# 
#                 2355   read_single_word_nonseq_single_Htransfer_reset task in generator
# Scoreboard read
# Temp address = eb583
# Read data from DUT 00000000
# Data from TB memory 00000000
# 
#                 2360   write_incr_byte_nonseq_incr_Hburst_reset task in generator
# Scoreboard check...
# Input Address: 81ecd
# Input Write Data: a207d13c
# Data Stored: a207d13c
# 
#                 2365   read_incr_halfword_nonseq_incr_Hburst_reset task in generator
# Scoreboard read
# Temp address = 6414e
# Read data from DUT 00000000
# Data from TB memory 00000000
# 
#                 2370   write_incr_word_nonseq_incr_Hburst_reset task in generator
# Scoreboard check...
# Input Address: 77503
# Input Write Data: 7ce765b7
# Data Stored: 7ce765b7
# 
#                 2375   read_wrap4_byte_nonseq_wrap4_Hburst_reset task in generator
# Scoreboard read
# Temp address = 3a508
# Read data from DUT 00000000
# Data from TB memory 00000000
# 
#                 2380   write_wrap4_halfword_nonseq_wrap4_Hburst_reset task in generator
# Scoreboard check...
# Input Address: df9f4
# Input Write Data: bfe684ae
# Data Stored: bfe684ae
# 
#                 2385   read_wrap4_word_nonseq_wrap4_Hburst_reset task in generator
# Scoreboard read
# Temp address = debef
# Read data from DUT 00000000
# Data from TB memory 00000000
# 
#                 2390   write_incr4_byte_nonseq_incr4_Hburst_reset task in generator
# Scoreboard check...
# Input Address: a8e3d
# Input Write Data: 0de55158
# Data Stored: 0de55158
# 
#                 2395   read_incr4_halfword_nonseq_incr4_Hburst_reset task in generator
# Scoreboard read
# Temp address = 064fa
# Read data from DUT 00000000
# Data from TB memory 00000000
# 
#                 2400   write_incr4_word_nonseq_incr4_Hburst_reset task in generator
# Scoreboard check...
# Input Address: 609fe
# Input Write Data: caa8a3e3
# Data Stored: caa8a3e3
# 
#                 2405   write_incr4_word_idle_incr4_Hburst_reset task in generator
# Scoreboard check...
# Input Address: e9618
# Input Write Data: 068eca66
# Data Stored: 068eca66
# 
#                 2410   write_incr4_word_busy_incr4_Hburst_reset task in generator
# Scoreboard check...
# Input Address: caeb6
# Input Write Data: 5cc148cf
# Data Stored: 5cc148cf
# 
#                 2415   write_single_byte_idle_single_Htransfer_error task in generator
# Scoreboard check...
# Input Address: c3e12
# Input Write Data: ff36adf6
# Data Stored: ff36adf6
# 
# in test repeat
#                 2420   write_single_halfword_nonseq_single_Htransfer_okay task in generator
# Scoreboard check...
# Input Address: 2b938
# Input Write Data: 26127eba
# Data Stored: 26127eba
# 
#                 2425   read_single_word_nonseq_single_Htransfer_okay task in generator
# Scoreboard read
# Temp address = f7b55
# Read data from DUT 00000000
# Data from TB memory 00000000
# 
#                 2430   write_single_byte_nonseq_single_Htransfer_error task in generator
# Scoreboard check...
# Input Address: ec299
# Input Write Data: e47e57bb
# Data Stored: e47e57bb
# 
#                 2435   read_incr_halfword_nonseq_incr_Hburst_okay task in generator
# Scoreboard read
# Temp address = 0351b
# Read data from DUT 00000000
# Data from TB memory 00000000
# 
#                 2440   write_incr_word_nonseq_incr_Hburst_okay task in generator
# Scoreboard check...
# Input Address: 247c4
# Input Write Data: 5f6c7a31
# Data Stored: 5f6c7a31
# 
#                 2445   read_wrap4_byte_nonseq_wrap4_Hburst_okay task in generator
# Scoreboard read
# Temp address = 95c4a
# Read data from DUT 00000000
# Data from TB memory 00000000
# 
#                 2450   write_wrap4_halfword_nonseq_wrap4_Hburst_okay task in generator
# Scoreboard check...
# Input Address: 86d2f
# Input Write Data: 3270c39d
# Data Stored: 3270c39d
# 
#                 2455   read_wrap4_word_nonseq_wrap4_Hburst_okay task in generator
# Scoreboard read
# Temp address = 33336
# Read data from DUT 00000000
# Data from TB memory 00000000
# 
#                 2460   write_incr4_byte_nonseq_incr4_Hburst_okay task in generator
# Scoreboard check...
# Input Address: 618d0
# Input Write Data: fed97d49
# Data Stored: fed97d49
# 
#                 2465   read_incr4_halfword_nonseq_incr4_Hburst_okay task in generator
